(000.000000) can0 7E9#0201F45555555555
(000.001990) can0 7E5#0201F65555555555
(000.002946) can0 7E8#0041F40000
(000.003940) can0 7E4#0041F600
(000.006975) can0 7E1#0201495555555555
(000.008929) can0 7E0#004149B300
(000.024873) can0 7E7#0201F55555555555
(000.026770) can0 7E6#0041F500
(000.027862) can0 7E5#0201F65555555555
(000.029794) can0 7E4#0041F600
(000.032809) can0 7E1#0201495555555555
(000.033807) can0 7E0#004149B100
(000.049987) can0 7E3#0201115555555555
(000.050926) can0 7E2#004111B0
(000.053926) can0 7E5#0201F65555555555
(000.055919) can0 7E4#0041F600
(000.058959) can0 7E1#0201495555555555
(000.060939) can0 7E0#004149B000
(000.075931) can0 7E3#02010D5555555555
(000.076940) can0 7E2#00410DAF
(000.088542) can0 7E1#0201495555555555
(000.089906) can0 7E0#004149AE00
(000.091141) can0 7E5#0201F65555555555
(000.092872) can0 7E4#0041F600
(000.100956) can0 7E9#0201F45555555555
(000.102955) can0 7E8#0041F40000
(000.112929) can0 7E1#0201495555555555
(000.114870) can0 7E0#004149AD00
(000.116022) can0 7E5#0201F65555555555
(000.117907) can0 7E4#0041F600
(000.125925) can0 7E7#0201F55555555555
(000.126909) can0 7E6#0041F500
(000.138894) can0 7E1#0201495555555555
(000.139887) can0 7E0#004149AC00
(000.141895) can0 7E5#0201F65555555555
(000.143862) can0 7E4#0041F600
(000.151056) can0 7E3#0201115555555555
(000.152960) can0 7E2#004111AB
(000.164026) can0 7E1#0201495555555555
(000.165874) can0 7E0#004149AB00
(000.176919) can0 7E3#02010D5555555555
(000.178803) can0 7E2#00410DAA
(000.182932) can0 7E5#0201F65555555555
(000.184864) can0 7E4#0041F600
(000.189778) can0 7E1#0201495555555555
(000.190821) can0 7E0#004149A900
(000.201944) can0 7E9#0201F45555555555
(000.204909) can0 7E8#0041F40000
(000.207918) can0 7E5#0201F65555555555
(000.209844) can0 7E4#0041F600
(000.215844) can0 7E1#0201495555555555
(000.218019) can0 7E0#004149A800
(000.227982) can0 7E7#0201F55555555555
(000.229919) can0 7E6#0041F500
(000.234034) can0 7E5#0201F65555555555
(000.235953) can0 7E4#0041F600
(000.242009) can0 7E1#0201495555555555
(000.242970) can0 7E0#004149A700
(000.252815) can0 7E3#0201115555555555
(000.253820) can0 7E2#004111A6
(000.259833) can0 7E5#0201F65555555555
(000.264849) can0 7E4#0041F600
(000.267789) can0 7E1#0201495555555555
(000.269803) can0 7E0#004149A500
(000.278770) can0 7E3#02010D5555555555
(000.279677) can0 7E2#00410DA5
(000.293775) can0 7E1#0201495555555555
(000.294736) can0 7E0#004149A400
(000.299765) can0 7E5#0201F65555555555
(000.301684) can0 7E4#0041F600
(000.303732) can0 7E9#0201F45555555555
(000.305711) can0 7E8#0041F40000
(000.320733) can0 7E1#0201495555555555
(000.322765) can0 7E0#004149A300
(000.325725) can0 7E5#0201F65555555555
(000.327639) can0 7E4#0041F600
(000.328745) can0 7E7#0201F55555555555
(000.329703) can0 7E6#0041F500
(000.346667) can0 7E1#0201495555555555
(000.347610) can0 7E0#004149A100
(000.351664) can0 7E5#0201F65555555555
(000.354917) can0 7E3#0201115555555555
(000.355076) can0 7E4#0041F600
(000.356581) can0 7E2#004111A1
(000.373768) can0 7E1#0201495555555555
(000.375721) can0 7E0#004149A000
(000.377682) can0 7E5#0201F65555555555
(000.379654) can0 7E3#02010D5555555555
(000.379805) can0 7E4#0041F600
(000.381602) can0 7E2#00410DA0
(000.399763) can0 7E1#0201495555555555
(000.400696) can0 7E0#0041499F00
(000.404629) can0 7E9#0201F45555555555
(000.407330) can0 7E5#0201F65555555555
(000.407592) can0 7E8#0041F40000
(000.409573) can0 7E4#0041F600
(000.425748) can0 7E1#0201495555555555
(000.427699) can0 7E0#0041499D00
(000.429720) can0 7E7#0201F55555555555
(000.431756) can0 7E5#0201F65555555555
(000.431912) can0 7E6#0041F500
(000.433663) can0 7E4#0041F600
(000.451643) can0 7E1#0201495555555555
(000.452580) can0 7E0#0041499C00
(000.454589) can0 7E3#0201115555555555
(000.455553) can0 7E2#0041119C
(000.457621) can0 7E5#0201F65555555555
(000.459689) can0 7E4#0041F600
(000.477739) can0 7E1#0201495555555555
(000.479662) can0 7E0#0041499B00
(000.480761) can0 7E3#02010D5555555555
(000.481699) can0 7E2#00410D9B
(000.483714) can0 7E5#0201F65555555555
(000.485604) can0 7E4#0041F600
(000.503644) can0 7E1#0201495555555555
(000.504614) can0 7E0#0041499900
(000.505636) can0 7E9#0201F45555555555
(000.507593) can0 7E8#0041F40000
(000.509617) can0 7E5#0201F65555555555
(000.511640) can0 7E4#0041F600
(000.529735) can0 7E1#0201495555555555
(000.530767) can0 7E7#0201F55555555555
(000.531655) can0 7E6#0041F500
(000.531845) can0 7E0#0041499800
(000.535642) can0 7E5#0201F65555555555
(000.537552) can0 7E4#0041F600
(000.555632) can0 7E3#0201115555555555
(000.555843) can0 7E1#0201495555555555
(000.556677) can0 7E0#0041499700
(000.557569) can0 7E2#00411196
(000.561732) can0 7E5#0201F65555555555
(000.563664) can0 7E4#0041F600
(000.581706) can0 7E1#0201495555555555
(000.581910) can0 7E3#02010D5555555555
(000.583665) can0 7E0#0041499500
(000.583829) can0 7E2#00410D96
(000.587637) can0 7E5#0201F65555555555
(000.589497) can0 7E4#0041F600
(000.606583) can0 7E9#0201F45555555555
(000.607566) can0 7E1#0201495555555555
(000.608551) can0 7E0#0041499400
(000.609549) can0 7E8#0041F40000
(000.621700) can0 7E5#0201F65555555555
(000.623643) can0 7E4#0041F600
(000.631690) can0 7E7#0201F55555555555
(000.633651) can0 7E1#0201495555555555
(000.633822) can0 7E6#0041F500
(000.635518) can0 7E0#0041499300
(000.647545) can0 7E5#0201F65555555555
(000.649500) can0 7E4#0041F600
(000.656535) can0 7E3#0201115555555555
(000.657563) can0 7E2#00411191
(000.659658) can0 7E1#0201495555555555
(000.660617) can0 7E0#0041499100
(000.673675) can0 7E5#0201F65555555555
(000.675593) can0 7E4#0041F600
(000.682529) can0 7E3#02010D5555555555
(000.683482) can0 7E2#00410D90
(000.685503) can0 7E1#0201495555555555
(000.687460) can0 7E0#0041499000
(000.699538) can0 7E5#0201F65555555555
(000.701574) can0 7E4#0041F600
(000.707555) can0 7E9#0201F45555555555
(000.709591) can0 7E8#0041F40000
(000.711628) can0 7E1#0201495555555555
(000.712627) can0 7E0#0041498F00
(000.725630) can0 7E5#0201F65555555555
(000.727587) can0 7E4#0041F600
(000.732499) can0 7E7#0201F55555555555
(000.733452) can0 7E6#0041F500
(000.737520) can0 7E1#0201495555555555
(000.739449) can0 7E0#0041498D00
(000.751545) can0 7E5#0201F65555555555
(000.753403) can0 7E4#0041F600
(000.757524) can0 7E3#0201115555555555
(000.759374) can0 7E2#0041118C
(000.763428) can0 7E1#0201495555555555
(000.764385) can0 7E0#0041498C00
(000.781303) can0 7E5#0201F65555555555
(000.783450) can0 7E3#02010D5555555555
(000.783616) can0 7E4#0041F600
(000.785387) can0 7E2#00410D8B
(000.789504) can0 7E1#0201495555555555
(000.791374) can0 7E0#0041498B00
(000.805528) can0 7E5#0201F65555555555
(000.807457) can0 7E4#0041F600
(000.808545) can0 7E9#0201F45555555555
(000.811483) can0 7E8#0041F40000
(000.815548) can0 7E1#0201495555555555
(000.816523) can0 7E0#0041498900
(000.831434) can0 7E5#0201F65555555555
(000.833423) can0 7E7#0201F55555555555
(000.833590) can0 7E4#0041F600
(000.835385) can0 7E6#0041F500
(000.841410) can0 7E1#0201495555555555
(000.843387) can0 7E0#0041498800
(000.857440) can0 7E5#0201F65555555555
(000.858425) can0 7E3#0201115555555555
(000.859367) can0 7E4#0041F600
(000.859534) can0 7E2#00411187
(000.867383) can0 7E1#0201495555555555
(000.868352) can0 7E0#0041498700
(000.883386) can0 7E5#0201F65555555555
(000.884391) can0 7E3#02010D5555555555
(000.885319) can0 7E4#0041F600
(000.885489) can0 7E2#00410D86
(000.893389) can0 7E1#0201495555555555
(000.895317) can0 7E0#0041498500
(000.909420) can0 7E5#0201F65555555555
(000.909633) can0 7E9#0201F45555555555
(000.911336) can0 7E8#0041F40000
(000.911507) can0 7E4#0041F600
(000.919382) can0 7E1#0201495555555555
(000.920293) can0 7E0#0041498400
(000.934365) can0 7E7#0201F55555555555
(000.935373) can0 7E5#0201F65555555555
(000.935545) can0 7E6#0041F500
(000.937326) can0 7E4#0041F600
(000.947326) can0 7E1#0201495555555555
(000.949294) can0 7E0#0041498300
(000.959352) can0 7E3#0201115555555555
(000.961352) can0 7E5#0201F65555555555
(000.961520) can0 7E2#00411182
(000.963243) can0 7E4#0041F600
(000.973347) can0 7E1#0201495555555555
(000.974330) can0 7E0#0041498100
(000.985318) can0 7E3#02010D5555555555
(000.987339) can0 7E5#0201F65555555555
(000.987503) can0 7E2#00410D81
(000.989233) can0 7E4#0041F600
(000.999347) can0 7E1#0201495555555555
(001.001252) can0 7E0#0041498000
(001.010321) can0 7E9#0201F45555555555
(001.018698) can0 7E5#0201F65555555555
(001.019279) can0 7E8#0041F40000
(001.020217) can0 7E4#0041F600
(001.025319) can0 7E1#0201495555555555
(001.026244) can0 7E0#0041497F00
(001.035328) can0 7E7#0201F55555555555
(001.037273) can0 7E6#0041F500
(001.043339) can0 7E5#0201F65555555555
(001.045227) can0 7E4#0041F600
(001.051289) can0 7E1#0201495555555555
(001.053246) can0 7E0#0041497D00
(001.060319) can0 7E3#0201115555555555
(001.061235) can0 7E2#0041117D
(001.069292) can0 7E5#0201F65555555555
(001.071195) can0 7E4#0041F600
(001.077279) can0 7E1#0201495555555555
(001.078256) can0 7E0#0041497C00
(001.086280) can0 7E3#02010D5555555555
(001.087195) can0 7E2#00410D7C
(001.095276) can0 7E5#0201F65555555555
(001.097213) can0 7E4#0041F600
(001.103338) can0 7E1#0201495555555555
(001.105220) can0 7E0#0041497B00
(001.112238) can0 7E9#0201F45555555555
(001.114211) can0 7E8#0041F40000
(001.121253) can0 7E5#0201F65555555555
(001.123150) can0 7E4#0041F600
(001.129291) can0 7E1#0201495555555555
(001.130223) can0 7E0#0041497900
(001.138271) can0 7E7#0201F55555555555
(001.139212) can0 7E6#0041F500
(001.147277) can0 7E5#0201F65555555555
(001.149201) can0 7E4#0041F600
(001.155238) can0 7E1#0201495555555555
(001.157173) can0 7E0#0041497800
(001.163275) can0 7E3#0201115555555555
(001.165166) can0 7E2#00411177
(001.173261) can0 7E5#0201F65555555555
(001.175147) can0 7E4#0041F600
(001.181235) can0 7E1#0201495555555555
(001.182227) can0 7E0#0041497700
(001.189239) can0 7E3#02010D5555555555
(001.191200) can0 7E2#00410D76
(001.204300) can0 7E5#0201F65555555555
(001.206111) can0 7E4#0041F600
(001.207202) can0 7E1#0201495555555555
(001.209150) can0 7E0#0041497500
(001.214221) can0 7E9#0201F45555555555
(001.217161) can0 7E8#0041F40000
(001.229226) can0 7E5#0201F65555555555
(001.231110) can0 7E4#0041F600
(001.233194) can0 7E1#0201495555555555
(001.234137) can0 7E0#0041497400
(001.239193) can0 7E7#0201F55555555555
(001.241126) can0 7E6#0041F500
(001.255218) can0 7E5#0201F65555555555
(001.257096) can0 7E4#0041F600
(001.259194) can0 7E1#0201495555555555
(001.261153) can0 7E0#0041497300
(001.264172) can0 7E3#0201115555555555
(001.265138) can0 7E2#00411172
(001.281165) can0 7E5#0201F65555555555
(001.283128) can0 7E4#0041F600
(001.285180) can0 7E1#0201495555555555
(001.286152) can0 7E0#0041497100
(001.290241) can0 7E3#02010D5555555555
(001.291106) can0 7E2#00410D71
(001.307238) can0 7E5#0201F65555555555
(001.309093) can0 7E4#0041F600
(001.311125) can0 7E1#0201495555555555
(001.313110) can0 7E0#0041497000
(001.315126) can0 7E9#0201F45555555555
(001.317122) can0 7E8#0041F40000
(001.333175) can0 7E5#0201F65555555555
(001.335041) can0 7E4#0041F600
(001.337100) can0 7E1#0201495555555555
(001.338099) can0 7E0#0041496F00
(001.340133) can0 7E7#0201F55555555555
(001.341113) can0 7E6#0041F500
(001.359145) can0 7E5#0201F65555555555
(001.361050) can0 7E4#0041F600
(001.363143) can0 7E1#0201495555555555
(001.365139) can0 7E3#0201115555555555
(001.365312) can0 7E0#0041496D00
(001.367101) can0 7E2#0041116D
(001.389063) can0 7E1#0201495555555555
(001.390094) can0 7E0#0041496C00
(001.391092) can0 7E3#02010D5555555555
(001.391769) can0 7E5#0201F65555555555
(001.392983) can0 7E2#00410D6C
(001.394025) can0 7E4#0041F600
(001.415121) can0 7E1#0201495555555555
(001.416068) can0 7E5#0201F65555555555
(001.416297) can0 7E9#0201F45555555555
(001.417023) can0 7E0#0041496B00
(001.418032) can0 7E4#0041F600
(001.419064) can0 7E8#0041F40000
(001.441103) can0 7E7#0201F55555555555
(001.441309) can0 7E1#0201495555555555
(001.442075) can0 7E5#0201F65555555555
(001.442259) can0 7E0#0041496900
(001.443046) can0 7E6#0041F500
(001.444037) can0 7E4#0041F600
(001.466124) can0 7E3#0201115555555555
(001.467058) can0 7E1#0201495555555555
(001.467223) can0 7E2#00411168
(001.468057) can0 7E5#0201F65555555555
(001.469056) can0 7E0#0041496800
(001.470017) can0 7E4#0041F600
(001.492082) can0 7E3#02010D5555555555
(001.493037) can0 7E1#0201495555555555
(001.493204) can0 7E2#00410D67
(001.494022) can0 7E5#0201F65555555555
(001.494217) can0 7E0#0041496700
(001.495984) can0 7E4#0041F600
(001.517053) can0 7E9#0201F45555555555
(001.518992) can0 7E1#0201495555555555
(001.519177) can0 7E8#0041F40000
(001.520045) can0 7E5#0201F65555555555
(001.520995) can0 7E0#0041496500
(001.521967) can0 7E4#0041F600
(001.542001) can0 7E7#0201F55555555555
(001.542968) can0 7E6#0041F500
(001.545032) can0 7E1#0201495555555555
(001.546029) can0 7E5#0201F65555555555
(001.546213) can0 7E0#0041496400
(001.547952) can0 7E4#0041F600
(001.566998) can0 7E3#0201115555555555
(001.568910) can0 7E2#00411163
(001.570996) can0 7E1#0201495555555555
(001.571975) can0 7E5#0201F65555555555
(001.573088) can0 7E0#0041496300
(001.573900) can0 7E4#0041F600
(001.592991) can0 7E3#02010D5555555555
(001.594915) can0 7E2#00410D62
(001.596928) can0 7E1#0201495555555555
(001.597935) can0 7E5#0201F65555555555
(001.598130) can0 7E0#0041496200
(001.599866) can0 7E4#0041F600
(001.618082) can0 7E9#0201F45555555555
(001.622927) can0 7E1#0201495555555555
(001.624976) can0 7E0#0041496000
(001.625898) can0 7E5#0201F65555555555
(001.626964) can0 7E8#0041F40000
(001.627892) can0 7E4#0041F600
(001.643049) can0 7E7#0201F55555555555
(001.644982) can0 7E6#0041F500
(001.650001) can0 7E1#0201495555555555
(001.650997) can0 7E5#0201F65555555555
(001.651181) can0 7E0#0041495F00
(001.652908) can0 7E4#0041F600
(001.669147) can0 7E3#0201115555555555
(001.669923) can0 7E2#0041115E
(001.675999) can0 7E1#0201495555555555
(001.676959) can0 7E5#0201F65555555555
(001.677884) can0 7E0#0041495D00
(001.678886) can0 7E4#0041F600
(001.694025) can0 7E3#02010D5555555555
(001.695005) can0 7E2#00410D5D
(001.701971) can0 7E1#0201495555555555
(001.702934) can0 7E5#0201F65555555555
(001.703112) can0 7E0#0041495C00
(001.704843) can0 7E4#0041F600
(001.719028) can0 7E9#0201F45555555555
(001.728030) can0 7E1#0201495555555555
(001.729932) can0 7E0#0041495B00
(001.731321) can0 7E5#0201F65555555555
(001.731493) can0 7E8#0041F40000
(001.733968) can0 7E4#0041F600
(001.743961) can0 7E7#0201F55555555555
(001.744940) can0 7E6#0041F500
(001.754033) can0 7E1#0201495555555555
(001.754982) can0 7E0#0041495A00
(001.756046) can0 7E5#0201F65555555555
(001.757939) can0 7E4#0041F600
(001.768902) can0 7E3#0201115555555555
(001.770841) can0 7E2#00411158
(001.779981) can0 7E1#0201495555555555
(001.782004) can0 7E5#0201F65555555555
(001.782169) can0 7E0#0041495800
(001.783911) can0 7E4#0041F600
(001.794926) can0 7E3#02010D5555555555
(001.796811) can0 7E2#00410D57
(001.805923) can0 7E1#0201495555555555
(001.807093) can0 7E0#0041495700
(001.813540) can0 7E5#0201F65555555555
(001.815824) can0 7E4#0041F600
(001.819968) can0 7E9#0201F45555555555
(001.822851) can0 7E8#0041F40000
(001.831974) can0 7E1#0201495555555555
(001.833912) can0 7E0#0041495500
(001.836967) can0 7E5#0201F65555555555
(001.838914) can0 7E4#0041F600
(001.844952) can0 7E7#0201F55555555555
(001.846927) can0 7E6#0041F500
(001.859155) can0 7E1#0201495555555555
(001.859801) can0 7E0#0041495400
(001.863829) can0 7E5#0201F65555555555
(001.865771) can0 7E4#0041F600
(001.869825) can0 7E3#0201115555555555
(001.870765) can0 7E2#00411153
(001.882943) can0 7E1#0201495555555555
(001.884885) can0 7E0#0041495300
(001.888926) can0 7E5#0201F65555555555
(001.890867) can0 7E4#0041F600
(001.895924) can0 7E3#02010D5555555555
(001.897091) can0 7E2#00410D52
(001.909936) can0 7E1#0201495555555555
(001.910873) can0 7E0#0041495200
(001.917860) can0 7E5#0201F65555555555
(001.919850) can0 7E4#0041F600
(001.920940) can0 7E9#0201F45555555555
(001.922894) can0 7E8#0041F40000
(001.935943) can0 7E1#0201495555555555
(001.937886) can0 7E0#0041495000
(001.942952) can0 7E5#0201F65555555555
(001.944869) can0 7E4#0041F600
(001.945972) can0 7E7#0201F55555555555
(001.946907) can0 7E6#0041F500
(001.961902) can0 7E1#0201495555555555
(001.962848) can0 7E0#0041494F00
(001.968877) can0 7E5#0201F65555555555
(001.970879) can0 7E3#0201115555555555
(001.971044) can0 7E4#0041F600
(001.972808) can0 7E2#0041114E
(001.987919) can0 7E1#0201495555555555
(001.989852) can0 7E0#0041494E00
(001.994807) can0 7E5#0201F65555555555
(001.997032) can0 7E3#02010D5555555555
(001.997200) can0 7E4#0041F600
(001.998745) can0 7E2#00410D4D
(002.013910) can0 7E1#0201495555555555
(002.014836) can0 7E0#0041494C00
(002.020825) can0 7E5#0201F65555555555
(002.021971) can0 7E9#0201F45555555555
(002.023880) can0 7E4#0041F600
(002.024874) can0 7E8#0041F40000
(002.040938) can0 7E1#0201495555555555
(002.042722) can0 7E0#0041494B00
(002.046772) can0 7E7#0201F55555555555
(002.050129) can0 7E5#0201F65555555555
(002.050289) can0 7E6#0041F500
(002.051669) can0 7E4#0041F600
(002.066784) can0 7E1#0201495555555555
(002.067729) can0 7E0#0041494A00
(002.071755) can0 7E3#0201115555555555
(002.072712) can0 7E2#00411149
(002.074715) can0 7E5#0201F65555555555
(002.076639) can0 7E4#0041F600
(002.092754) can0 7E1#0201495555555555
(002.094684) can0 7E0#0041494800
(002.097709) can0 7E3#02010D5555555555
(002.098671) can0 7E2#00410D48
(002.100729) can0 7E5#0201F65555555555
(002.102761) can0 7E4#0041F600
(002.119691) can0 7E1#0201495555555555
(002.120641) can0 7E0#0041494700
(002.122623) can0 7E9#0201F45555555555
(002.124621) can0 7E8#0041F40000
(002.126649) can0 7E5#0201F65555555555
(002.128588) can0 7E4#0041F600
(002.145675) can0 7E1#0201495555555555
(002.147756) can0 7E7#0201F55555555555
(002.147937) can0 7E0#0041494500
(002.148617) can0 7E6#0041F500
(002.152679) can0 7E5#0201F65555555555
(002.154719) can0 7E4#0041F600
(002.171771) can0 7E1#0201495555555555
(002.172733) can0 7E3#0201115555555555
(002.172916) can0 7E0#0041494400
(002.174698) can0 7E2#00411144
(002.178769) can0 7E5#0201F65555555555
(002.180718) can0 7E4#0041F600
(002.197665) can0 7E1#0201495555555555
(002.198611) can0 7E3#02010D5555555555
(002.199583) can0 7E0#0041494300
(002.200633) can0 7E2#00410D43
(002.204658) can0 7E5#0201F65555555555
(002.206529) can0 7E4#0041F600
(002.223676) can0 7E1#0201495555555555
(002.223884) can0 7E9#0201F45555555555
(002.224723) can0 7E0#0041494200
(002.226701) can0 7E8#0041F40000
(002.234919) can0 7E5#0201F65555555555
(002.236519) can0 7E4#0041F600
(002.248724) can0 7E7#0201F55555555555
(002.249732) can0 7E1#0201495555555555
(002.250640) can0 7E6#0041F500
(002.251685) can0 7E0#0041494000
(002.259630) can0 7E5#0201F65555555555
(002.261497) can0 7E4#0041F600
(002.273691) can0 7E3#0201115555555555
(002.274696) can0 7E2#0041113F
(002.275613) can0 7E1#0201495555555555
(002.277972) can0 7E0#0041493F00
(002.285612) can0 7E5#0201F65555555555
(002.287648) can0 7E4#0041F600
(002.299700) can0 7E3#02010D5555555555
(002.300679) can0 7E2#00410D3E
(002.301686) can0 7E1#0201495555555555
(002.303645) can0 7E0#0041493E00
(002.311687) can0 7E5#0201F65555555555
(002.313604) can0 7E4#0041F600
(002.324670) can0 7E9#0201F45555555555
(002.327645) can0 7E1#0201495555555555
(002.328633) can0 7E0#0041493C00
(002.334082) can0 7E8#0041F40000
(002.337643) can0 7E5#0201F65555555555
(002.339623) can0 7E4#0041F600
(002.349672) can0 7E7#0201F55555555555
(002.350615) can0 7E6#0041F500
(002.353581) can0 7E1#0201495555555555
(002.355599) can0 7E0#0041493B00
(002.363755) can0 7E5#0201F65555555555
(002.365724) can0 7E4#0041F600
(002.374654) can0 7E3#0201115555555555
(002.376575) can0 7E2#0041113A
(002.379614) can0 7E1#0201495555555555
(002.380596) can0 7E0#0041493A00
(002.389679) can0 7E5#0201F65555555555
(002.391561) can0 7E4#0041F600
(002.400680) can0 7E3#02010D5555555555
(002.402704) can0 7E2#00410D38
(002.405748) can0 7E1#0201495555555555
(002.407622) can0 7E0#0041493800
(002.415667) can0 7E5#0201F65555555555
(002.417543) can0 7E4#0041F600
(002.425631) can0 7E9#0201F45555555555
(002.431575) can0 7E1#0201495555555555
(002.432551) can0 7E8#0041F40000
(002.432729) can0 7E0#0041493700
(002.450699) can0 7E7#0201F55555555555
(002.452645) can0 7E6#0041F500
(002.456660) can0 7E5#0201F65555555555
(002.457740) can0 7E1#0201495555555555
(002.458548) can0 7E4#0041F600
(002.459727) can0 7E0#0041493600
(002.475605) can0 7E3#0201115555555555
(002.476529) can0 7E2#00411134
(002.482563) can0 7E5#0201F65555555555
(002.483559) can0 7E1#0201495555555555
(002.484540) can0 7E0#0041493400
(002.484710) can0 7E4#0041F600
(002.501585) can0 7E3#02010D5555555555
(002.502554) can0 7E2#00410D33
(002.508614) can0 7E5#0201F65555555555
(002.509596) can0 7E1#0201495555555555
(002.510391) can0 7E4#0041F600
(002.511401) can0 7E0#0041493300
(002.526576) can0 7E9#0201F45555555555
(002.528542) can0 7E8#0041F40000
(002.534565) can0 7E5#0201F65555555555
(002.535567) can0 7E1#0201495555555555
(002.536543) can0 7E0#0041493200
(002.536715) can0 7E4#0041F600
(002.551563) can0 7E7#0201F55555555555
(002.552544) can0 7E6#0041F500
(002.560480) can0 7E5#0201F65555555555
(002.562089) can0 7E1#0201495555555555
(002.562334) can0 7E4#0041F600
(002.564378) can0 7E0#0041493000
(002.576547) can0 7E3#0201115555555555
(002.578500) can0 7E2#0041112F
(002.586528) can0 7E5#0201F65555555555
(002.586745) can0 7E1#0201495555555555
(002.587429) can0 7E0#0041492F00
(002.588362) can0 7E4#0041F600
(002.602528) can0 7E3#02010D5555555555
(002.604344) can0 7E2#00410D2E
(002.612404) can0 7E1#0201495555555555
(002.612615) can0 7E5#0201F65555555555
(002.614375) can0 7E0#0041492E00
(002.614545) can0 7E4#0041F600
(002.627402) can0 7E9#0201F45555555555
(002.630364) can0 7E8#0041F40000
(002.638397) can0 7E5#0201F65555555555
(002.638616) can0 7E1#0201495555555555
(002.639361) can0 7E0#0041492C00
(002.640312) can0 7E4#0041F600
(002.652419) can0 7E7#0201F55555555555
(002.657987) can0 7E6#0041F500
(002.664357) can0 7E5#0201F65555555555
(002.664574) can0 7E1#0201495555555555
(002.666341) can0 7E0#0041492B00
(002.666513) can0 7E4#0041F600
(002.677479) can0 7E3#0201115555555555
(002.678453) can0 7E2#0041112A
(002.690479) can0 7E1#0201495555555555
(002.690692) can0 7E5#0201F65555555555
(002.691412) can0 7E0#0041492A00
(002.692440) can0 7E4#0041F600
(002.703354) can0 7E3#02010D5555555555
(002.704265) can0 7E2#00410D29
(002.716344) can0 7E5#0201F65555555555
(002.716558) can0 7E1#0201495555555555
(002.718265) can0 7E0#0041492800
(002.718436) can0 7E4#0041F600
(002.728462) can0 7E9#0201F45555555555
(002.730392) can0 7E8#0041F40000
(002.742574) can0 7E5#0201F65555555555
(002.742791) can0 7E1#0201495555555555
(002.744490) can0 7E0#0041492700
(002.744661) can0 7E4#0041F600
(002.753410) can0 7E7#0201F55555555555
(002.759622) can0 7E6#0041F500
(002.768425) can0 7E5#0201F65555555555
(002.768644) can0 7E1#0201495555555555
(002.770367) can0 7E0#0041492600
(002.770536) can0 7E4#0041F600
(002.778430) can0 7E3#0201115555555555
(002.780325) can0 7E2#00411125
(002.794416) can0 7E5#0201F65555555555
(002.794626) can0 7E1#0201495555555555
(002.795518) can0 7E0#0041492400
(002.795693) can0 7E4#0041F600
(002.804315) can0 7E3#02010D5555555555
(002.806339) can0 7E2#00410D24
(002.820287) can0 7E1#0201495555555555
(002.820496) can0 7E5#0201F65555555555
(002.822222) can0 7E0#0041492300
(002.822395) can0 7E4#0041F600
(002.829313) can0 7E9#0201F45555555555
(002.832248) can0 7E8#0041F40000
(002.846281) can0 7E1#0201495555555555
(002.847261) can0 7E0#0041492200
(002.848322) can0 7E5#0201F65555555555
(002.850207) can0 7E4#0041F600
(002.854281) can0 7E7#0201F55555555555
(002.856269) can0 7E6#0041F500
(002.871302) can0 7E1#0201495555555555
(002.873262) can0 7E5#0201F65555555555
(002.873442) can0 7E0#0041492100
(002.875238) can0 7E4#0041F600
(002.880299) can0 7E3#0201115555555555
(002.881229) can0 7E2#00411120
(002.897286) can0 7E1#0201495555555555
(002.898244) can0 7E0#0041491F00
(002.899270) can0 7E5#0201F65555555555
(002.901317) can0 7E4#0041F600
(002.905385) can0 7E3#02010D5555555555
(002.906379) can0 7E2#00410D1F
(002.923453) can0 7E1#0201495555555555
(002.925323) can0 7E5#0201F65555555555
(002.925506) can0 7E0#0041491E00
(002.927312) can0 7E4#0041F600
(002.930356) can0 7E9#0201F45555555555
(002.940660) can0 7E8#0041F40000
(002.949319) can0 7E1#0201495555555555
(002.950210) can0 7E0#0041491D00
(002.951226) can0 7E5#0201F65555555555
(002.953160) can0 7E4#0041F600
(002.956313) can0 7E7#0201F55555555555
(002.957280) can0 7E6#0041F500
(002.975355) can0 7E1#0201495555555555
(002.977283) can0 7E0#0041491B00
(002.977500) can0 7E5#0201F65555555555
(002.980978) can0 7E4#0041F600
(002.981194) can0 7E3#0201115555555555
(002.983144) can0 7E2#0041111B
(003.001333) can0 7E1#0201495555555555
(003.002335) can0 7E0#0041491A00
(003.003324) can0 7E5#0201F65555555555
(003.005129) can0 7E4#0041F600
(003.007360) can0 7E3#02010D5555555555
(003.009408) can0 7E2#00410D19
(003.027379) can0 7E1#0201495555555555
(003.029339) can0 7E0#0041491900
(003.032382) can0 7E9#0201F45555555555
(003.047373) can0 7E5#0201F65555555555
(003.048366) can0 7E8#0041F40000
(003.049403) can0 7E4#0041F600
(003.053340) can0 7E1#0201495555555555
(003.054381) can0 7E0#0041491700
(003.057315) can0 7E7#0201F55555555555
(003.059304) can0 7E6#0041F500
(003.072225) can0 7E5#0201F65555555555
(003.074150) can0 7E4#0041F600
(003.079219) can0 7E1#0201495555555555
(003.081192) can0 7E0#0041491600
(003.082211) can0 7E3#0201115555555555
(003.083177) can0 7E2#00411115
(003.098163) can0 7E5#0201F65555555555
(003.100086) can0 7E4#0041F600
(003.106194) can0 7E1#0201495555555555
(003.107162) can0 7E0#0041491500
(003.108288) can0 7E3#02010D5555555555
(003.109176) can0 7E2#00410D14
(003.124165) can0 7E5#0201F65555555555
(003.126089) can0 7E4#0041F600
(003.132110) can0 7E1#0201495555555555
(003.133137) can0 7E9#0201F45555555555
(003.134097) can0 7E0#0041491300
(003.135116) can0 7E8#0041F40000
(003.150264) can0 7E5#0201F65555555555
(003.152151) can0 7E4#0041F600
(003.158113) can0 7E7#0201F55555555555
(003.158326) can0 7E1#0201495555555555
(003.159051) can0 7E6#0041F500
(003.159238) can0 7E0#0041491200
(003.176465) can0 7E5#0201F65555555555
(003.178034) can0 7E4#0041F600
(003.183085) can0 7E3#0201115555555555
(003.184150) can0 7E1#0201495555555555
(003.185119) can0 7E2#00411110
(003.186078) can0 7E0#0041491100
(003.201117) can0 7E5#0201F65555555555
(003.203145) can0 7E4#0041F600
(003.209201) can0 7E3#02010D5555555555
(003.210226) can0 7E1#0201495555555555
(003.211156) can0 7E2#00410D0F
(003.211343) can0 7E0#0041490F00
(003.227123) can0 7E5#0201F65555555555
(003.229141) can0 7E4#0041F600
(003.234203) can0 7E9#0201F45555555555
(003.236166) can0 7E1#0201495555555555
(003.237206) can0 7E8#0041F40000
(003.238215) can0 7E0#0041490E00
(003.253185) can0 7E5#0201F65555555555
(003.255104) can0 7E4#0041F600
(003.259107) can0 7E7#0201F55555555555
(003.262035) can0 7E1#0201495555555555
(003.263025) can0 7E0#0041490D00
(003.268172) can0 7E6#0041F500
(003.279054) can0 7E5#0201F65555555555
(003.280955) can0 7E4#0041F600
(003.284176) can0 7E3#0201115555555555
(003.285118) can0 7E2#0041110B
(003.288155) can0 7E1#0201495555555555
(003.290138) can0 7E0#0041490B00
(003.305155) can0 7E5#0201F65555555555
(003.307248) can0 7E4#0041F600
(003.310195) can0 7E3#02010D5555555555
(003.311256) can0 7E2#00410D0A
(003.314193) can0 7E1#0201495555555555
(003.315265) can0 7E0#0041490A00
(003.332207) can0 7E5#0201F65555555555
(003.334144) can0 7E4#0041F600
(003.335222) can0 7E9#0201F45555555555
(003.337074) can0 7E8#0041F40000
(003.340118) can0 7E1#0201495555555555
(003.342080) can0 7E0#0041490900
(003.360073) can0 7E7#0201F55555555555
(003.366037) can0 7E1#0201495555555555
(003.366990) can0 7E0#0041490700
(003.367217) can0 7E5#0201F65555555555
(003.367389) can0 7E6#0041F500
(003.368914) can0 7E4#0041F600
(003.385006) can0 7E3#0201115555555555
(003.386912) can0 7E2#00411106
(003.391982) can0 7E5#0201F65555555555
(003.392189) can0 7E1#0201495555555555
(003.393933) can0 7E0#0041490600
(003.394104) can0 7E4#0041F600
(003.410956) can0 7E3#02010D5555555555
(003.412886) can0 7E2#00410D05
(003.418008) can0 7E1#0201495555555555
(003.418198) can0 7E5#0201F65555555555
(003.418890) can0 7E0#0041490500
(003.419915) can0 7E4#0041F600
(003.436070) can0 7E9#0201F45555555555
(003.439043) can0 7E8#0041F40000
(003.444051) can0 7E1#0201495555555555
(003.444265) can0 7E5#0201F65555555555
(003.446023) can0 7E0#0041490300
(003.446202) can0 7E4#0041F600
(003.460949) can0 7E7#0201F55555555555
(003.462873) can0 7E6#0041F500
(003.470029) can0 7E5#0201F65555555555
(003.470240) can0 7E1#0201495555555555
(003.470986) can0 7E0#0041490200
(003.471988) can0 7E4#0041F600
(003.486033) can0 7E3#0201115555555555
(003.487052) can0 7E2#00411101
(003.495925) can0 7E1#0201495555555555
(003.496134) can0 7E5#0201F65555555555
(003.497720) can0 7E0#0041490100
(003.497893) can0 7E4#0041F600
(003.511907) can0 7E3#02010D5555555555
(003.512850) can0 7E2#00410D00
(003.522029) can0 7E5#0201F65555555555
(003.522238) can0 7E1#0201495555555555
(003.522965) can0 7E0#0041490000
(003.523969) can0 7E4#0041F600
(003.537004) can0 7E9#0201F45555555555
(003.538874) can0 7E8#0041F40000
(003.548164) can0 7E1#0201495555555555
(003.549855) can0 7E0#0041490100
(003.552541) can0 7E5#0201F65555555555
(003.554831) can0 7E4#0041F600
(003.561907) can0 7E7#0201F55555555555
(003.562827) can0 7E6#0041F500
(003.573966) can0 7E1#0201495555555555
(003.574850) can0 7E0#0041490200
(003.576867) can0 7E5#0201F65555555555
(003.578809) can0 7E4#0041F600
(003.587006) can0 7E3#0201115555555555
(003.588799) can0 7E2#00411103
(003.600857) can0 7E1#0201495555555555
(003.602846) can0 7E5#0201F65555555555
(003.603027) can0 7E0#0041490400
(003.604923) can0 7E4#0041F600
(003.612969) can0 7E3#02010D5555555555
(003.614906) can0 7E2#00410D05
(003.625987) can0 7E1#0201495555555555
(003.626969) can0 7E0#0041490500
(003.628971) can0 7E5#0201F65555555555
(003.630919) can0 7E4#0041F600
(003.637845) can0 7E9#0201F45555555555
(003.640796) can0 7E8#0041F40000
(003.652827) can0 7E1#0201495555555555
(003.654918) can0 7E0#0041490600
(003.655970) can0 7E5#0201F65555555555
(003.657886) can0 7E4#0041F600
(003.662938) can0 7E7#0201F55555555555
(003.664867) can0 7E6#0041F500
(003.678942) can0 7E1#0201495555555555
(003.679902) can0 7E0#0041490800
(003.687797) can0 7E3#0201115555555555
(003.688446) can0 7E5#0201F65555555555
(003.688739) can0 7E2#00411108
(003.690727) can0 7E4#0041F600
(003.704924) can0 7E1#0201495555555555
(003.706804) can0 7E0#0041490900
(003.712796) can0 7E5#0201F65555555555
(003.713807) can0 7E3#02010D5555555555
(003.714715) can0 7E4#0041F600
(003.714880) can0 7E2#00410D0A
(003.730817) can0 7E1#0201495555555555
(003.731779) can0 7E0#0041490A00
(003.738773) can0 7E5#0201F65555555555
(003.738981) can0 7E9#0201F45555555555
(003.740721) can0 7E4#0041F600
(003.740913) can0 7E8#0041F40000
(003.756842) can0 7E1#0201495555555555
(003.758839) can0 7E0#0041490C00
(003.763870) can0 7E7#0201F55555555555
(003.764907) can0 7E5#0201F65555555555
(003.765074) can0 7E6#0041F500
(003.768850) can0 7E4#0041F600
(003.782772) can0 7E1#0201495555555555
(003.783728) can0 7E0#0041490D00
(003.788772) can0 7E3#0201115555555555
(003.790758) can0 7E5#0201F65555555555
(003.791812) can0 7E2#0041110E
(003.792714) can0 7E4#0041F600
(003.808854) can0 7E1#0201495555555555
(003.810759) can0 7E0#0041490E00
(003.814864) can0 7E3#02010D5555555555
(003.816832) can0 7E5#0201F65555555555
(003.817806) can0 7E2#00410D0F
(003.818808) can0 7E4#0041F600
(003.834753) can0 7E1#0201495555555555
(003.835714) can0 7E0#0041491000
(003.839820) can0 7E9#0201F45555555555
(003.842845) can0 7E5#0201F65555555555
(003.843010) can0 7E8#0041F40000
(003.844761) can0 7E4#0041F600
(003.860837) can0 7E1#0201495555555555
(003.862775) can0 7E0#0041491100
(003.864820) can0 7E7#0201F55555555555
(003.866770) can0 7E6#0041F500
(003.868827) can0 7E5#0201F65555555555
(003.870629) can0 7E4#0041F600
(003.886851) can0 7E1#0201495555555555
(003.887674) can0 7E0#0041491200
(003.889751) can0 7E3#0201115555555555
(003.890653) can0 7E2#00411113
(003.894810) can0 7E5#0201F65555555555
(003.896753) can0 7E4#0041F600
(003.912794) can0 7E1#0201495555555555
(003.914750) can0 7E0#0041491400
(003.915703) can0 7E3#02010D5555555555
(003.916604) can0 7E2#00410D14
(003.920692) can0 7E5#0201F65555555555
(003.922606) can0 7E4#0041F600
(003.938812) can0 7E1#0201495555555555
(003.939734) can0 7E0#0041491500
(003.940794) can0 7E9#0201F45555555555
(003.942786) can0 7E8#0041F40000
(003.946791) can0 7E5#0201F65555555555
(003.948606) can0 7E4#0041F600
(003.964744) can0 7E1#0201495555555555
(003.965633) can0 7E7#0201F55555555555
(003.966588) can0 7E0#0041491600
(003.972308) can0 7E6#0041F500
(003.972624) can0 7E5#0201F65555555555
(003.974584) can0 7E4#0041F600
(003.990747) can0 7E3#0201115555555555
(003.990964) can0 7E1#0201495555555555
(003.991694) can0 7E0#0041491800
(003.992729) can0 7E2#00411118
(003.998617) can0 7E5#0201F65555555555
(004.000565) can0 7E4#0041F600
(004.016625) can0 7E1#0201495555555555
(004.016830) can0 7E3#02010D5555555555
(004.018546) can0 7E0#0041491900
(004.018717) can0 7E2#00410D19
(004.024617) can0 7E5#0201F65555555555
(004.026552) can0 7E4#0041F600
(004.041598) can0 7E9#0201F45555555555
(004.042596) can0 7E1#0201495555555555
(004.043535) can0 7E0#0041491A00
(004.044549) can0 7E8#0041F40000
(004.050726) can0 7E5#0201F65555555555
(004.052621) can0 7E4#0041F600
(004.066588) can0 7E7#0201F55555555555
(004.068570) can0 7E1#0201495555555555
(004.068739) can0 7E6#0041F500
(004.070532) can0 7E0#0041491C00
(004.076609) can0 7E5#0201F65555555555
(004.078499) can0 7E4#0041F600
(004.091692) can0 7E3#0201115555555555
(004.092631) can0 7E2#0041111D
(004.094568) can0 7E1#0201495555555555
(004.095491) can0 7E0#0041491D00
(004.102661) can0 7E5#0201F65555555555
(004.104515) can0 7E4#0041F600
(004.117573) can0 7E3#02010D5555555555
(004.118642) can0 7E2#00410D1E
(004.120640) can0 7E1#0201495555555555
(004.122622) can0 7E0#0041491E00
(004.128672) can0 7E5#0201F65555555555
(004.130603) can0 7E4#0041F600
(004.142561) can0 7E9#0201F45555555555
(004.144528) can0 7E8#0041F40000
(004.146563) can0 7E1#0201495555555555
(004.147493) can0 7E0#0041492000
(004.157736) can0 7E5#0201F65555555555
(004.159497) can0 7E4#0041F600
(004.167530) can0 7E7#0201F55555555555
(004.168495) can0 7E6#0041F500
(004.172525) can0 7E1#0201495555555555
(004.174595) can0 7E0#0041492100
(004.182653) can0 7E5#0201F65555555555
(004.184573) can0 7E4#0041F600
(004.192651) can0 7E3#0201115555555555
(004.194584) can0 7E2#00411122
(004.198549) can0 7E1#0201495555555555
(004.200657) can0 7E0#0041492200
(004.208543) can0 7E5#0201F65555555555
(004.210457) can0 7E4#0041F600
(004.218565) can0 7E3#02010D5555555555
(004.220528) can0 7E2#00410D24
(004.224555) can0 7E1#0201495555555555
(004.226600) can0 7E0#0041492400
(004.234607) can0 7E5#0201F65555555555
(004.236620) can0 7E4#0041F600
(004.243696) can0 7E9#0201F45555555555
(004.246591) can0 7E8#0041F40000
(004.250535) can0 7E1#0201495555555555
(004.251563) can0 7E0#0041492500
(004.260551) can0 7E5#0201F65555555555
(004.262494) can0 7E4#0041F600
(004.268712) can0 7E7#0201F55555555555
(004.270636) can0 7E6#0041F500
(004.276561) can0 7E1#0201495555555555
(004.278634) can0 7E0#0041492600
(004.286672) can0 7E5#0201F65555555555
(004.288502) can0 7E4#0041F600
(004.293550) can0 7E3#0201115555555555
(004.294514) can0 7E2#00411127
(004.303865) can0 7E1#0201495555555555
(004.304495) can0 7E0#0041492800
(004.312519) can0 7E5#0201F65555555555
(004.314415) can0 7E4#0041F600
(004.319509) can0 7E3#02010D5555555555
(004.320538) can0 7E2#00410D29
(004.328513) can0 7E1#0201495555555555
(004.330480) can0 7E0#0041492900
(004.338663) can0 7E5#0201F65555555555
(004.340450) can0 7E4#0041F600
(004.344930) can0 7E9#0201F45555555555
(004.347452) can0 7E8#0041F40000
(004.354526) can0 7E1#0201495555555555
(004.355495) can0 7E0#0041492A00
(004.364517) can0 7E5#0201F65555555555
(004.366410) can0 7E4#0041F600
(004.369548) can0 7E7#0201F55555555555
(004.370573) can0 7E6#0041F500
(004.380619) can0 7E1#0201495555555555
(004.382572) can0 7E0#0041492C00
(004.394578) can0 7E3#0201115555555555
(004.396455) can0 7E2#0041112C
(004.403046) can0 7E5#0201F65555555555
(004.405468) can0 7E4#0041F600
(004.406538) can0 7E1#0201495555555555
(004.407543) can0 7E0#0041492D00
(004.420421) can0 7E3#02010D5555555555
(004.422364) can0 7E2#00410D2E
(004.427469) can0 7E5#0201F65555555555
(004.429473) can0 7E4#0041F600
(004.432472) can0 7E1#0201495555555555
(004.434416) can0 7E0#0041492E00
(004.445430) can0 7E9#0201F45555555555
(004.448322) can0 7E8#0041F40000
(004.453412) can0 7E5#0201F65555555555
(004.455349) can0 7E4#0041F600
(004.458498) can0 7E1#0201495555555555
(004.459488) can0 7E0#0041492F00
(004.470468) can0 7E7#0201F55555555555
(004.472396) can0 7E6#0041F500
(004.484342) can0 7E1#0201495555555555
(004.485241) can0 7E5#0201F65555555555
(004.486291) can0 7E0#0041493100
(004.487294) can0 7E4#0041F600
(004.495341) can0 7E3#0201115555555555
(004.496268) can0 7E2#00411132
(004.509335) can0 7E5#0201F65555555555
(004.510323) can0 7E1#0201495555555555
(004.511263) can0 7E0#0041493200
(004.511434) can0 7E4#0041F600
(004.521447) can0 7E3#02010D5555555555
(004.522403) can0 7E2#00410D33
(004.535326) can0 7E5#0201F65555555555
(004.536317) can0 7E1#0201495555555555
(004.537261) can0 7E4#0041F600
(004.538296) can0 7E0#0041493300
(004.546439) can0 7E9#0201F45555555555
(004.548351) can0 7E8#0041F40000
(004.561413) can0 7E5#0201F65555555555
(004.562427) can0 7E1#0201495555555555
(004.563377) can0 7E0#0041493500
(004.563548) can0 7E4#0041F600
(004.571606) can0 7E7#0201F55555555555
(004.572438) can0 7E6#0041F500
(004.588766) can0 7E1#0201495555555555
(004.590478) can0 7E5#0201F65555555555
(004.591465) can0 7E0#0041493600
(004.592453) can0 7E4#0041F600
(004.597442) can0 7E3#0201115555555555
(004.599357) can0 7E2#00411137
(004.613458) can0 7E1#0201495555555555
(004.614444) can0 7E0#0041493700
(004.615455) can0 7E5#0201F65555555555
(004.617373) can0 7E4#0041F600
(004.624511) can0 7E3#02010D5555555555
(004.626360) can0 7E2#00410D38
(004.639395) can0 7E1#0201495555555555
(004.641350) can0 7E5#0201F65555555555
(004.641529) can0 7E0#0041493900
(004.643351) can0 7E4#0041F600
(004.650406) can0 7E9#0201F45555555555
(004.653327) can0 7E8#0041F40000
(004.665416) can0 7E1#0201495555555555
(004.666281) can0 7E0#0041493A00
(004.675318) can0 7E7#0201F55555555555
(004.677871) can0 7E5#0201F65555555555
(004.678046) can0 7E6#0041F500
(004.680242) can0 7E4#0041F600
(004.691257) can0 7E1#0201495555555555
(004.693174) can0 7E0#0041493B00
(004.700301) can0 7E3#0201115555555555
(004.701181) can0 7E2#0041113C
(004.702246) can0 7E5#0201F65555555555
(004.704131) can0 7E4#0041F600
(004.717232) can0 7E1#0201495555555555
(004.717709) can0 7E0#0041493D00
(004.726247) can0 7E3#02010D5555555555
(004.727179) can0 7E2#00410D3E
(004.728189) can0 7E5#0201F65555555555
(004.730170) can0 7E4#0041F600
(004.743330) can0 7E1#0201495555555555
(004.745156) can0 7E0#0041493E00
(004.751219) can0 7E9#0201F45555555555
(004.753152) can0 7E8#0041F40000
(004.754260) can0 7E5#0201F65555555555
(004.756141) can0 7E4#0041F600
(004.769248) can0 7E1#0201495555555555
(004.770306) can0 7E0#0041493F00
(004.776319) can0 7E7#0201F55555555555
(004.777147) can0 7E6#0041F500
(004.780190) can0 7E5#0201F65555555555
(004.782116) can0 7E4#0041F600
(004.795165) can0 7E1#0201495555555555
(004.797234) can0 7E0#0041494100
(004.801293) can0 7E3#0201115555555555
(004.803221) can0 7E2#00411141
(004.806224) can0 7E5#0201F65555555555
(004.808174) can0 7E4#0041F680
(004.821174) can0 7E1#0201495555555555
(004.822128) can0 7E0#0041494200
(004.827218) can0 7E3#02010D5555555555
(004.829109) can0 7E2#00410D43
(004.832279) can0 7E5#0201F65555555555
(004.834232) can0 7E4#0041F680
(004.847252) can0 7E1#0201495555555555
(004.849181) can0 7E0#0041494300
(004.852244) can0 7E9#0201F45555555555
(004.855130) can0 7E8#0041F40080
(004.858150) can0 7E5#0201F65555555555
(004.860083) can0 7E4#0041F680
(004.873185) can0 7E1#0201495555555555
(004.874211) can0 7E0#0041494500
(004.877224) can0 7E7#0201F55555555555
(004.879171) can0 7E6#0041F500
(004.884234) can0 7E5#0201F65555555555
(004.886055) can0 7E4#0041F680
(004.899233) can0 7E1#0201495555555555
(004.901143) can0 7E0#0041494600
(004.902102) can0 7E3#0201115555555555
(004.903037) can0 7E2#00411146
(004.910114) can0 7E5#0201F65555555555
(004.912097) can0 7E4#0041F680
(004.925146) can0 7E1#0201495555555555
(004.926203) can0 7E0#0041494700
(004.928193) can0 7E3#02010D5555555555
(004.929196) can0 7E2#00410D48
(004.936194) can0 7E5#0201F65555555555
(004.938138) can0 7E4#0041F680
(004.951117) can0 7E1#0201495555555555
(004.953088) can0 7E9#0201F45555555555
(004.953265) can0 7E0#0041494900
(004.956046) can0 7E8#0041F40080
(004.962078) can0 7E5#0201F65555555555
(004.964122) can0 7E4#0041F680
(004.977190) can0 7E1#0201495555555555
(004.978184) can0 7E7#0201F55555555555
(004.978366) can0 7E0#0041494A00
(004.979099) can0 7E6#0041F500
(004.988173) can0 7E5#0201F65555555555
(004.990103) can0 7E4#0041F680
(005.003056) can0 7E1#0201495555555555
(005.003272) can0 7E3#0201115555555555
(005.004992) can0 7E2#0041114C
(005.005181) can0 7E0#0041494B00
(005.014065) can0 7E5#0201F65555555555
(005.016093) can0 7E4#0041F680
(005.029129) can0 7E1#0201495555555555
(005.029333) can0 7E3#02010D5555555555
(005.030137) can0 7E0#0041494D00
(005.031123) can0 7E2#00410D4D
(005.040036) can0 7E5#0201F65555555555
(005.041929) can0 7E4#0041F680
(005.054102) can0 7E9#0201F45555555555
(005.055020) can0 7E1#0201495555555555
(005.057027) can0 7E0#0041494E00
(005.057204) can0 7E8#0041F40080
(005.066008) can0 7E5#0201F65555555555
(005.067912) can0 7E4#0041F680
(005.079112) can0 7E7#0201F55555555555
(005.081023) can0 7E6#0041F500
(005.081250) can0 7E1#0201495555555555
(005.082115) can0 7E0#0041494F00
(005.094911) can0 7E5#0201F65555555555
(005.096957) can0 7E4#0041F680
(005.103979) can0 7E3#0201115555555555
(005.104939) can0 7E2#00411151
(005.107029) can0 7E1#0201495555555555
(005.109052) can0 7E0#0041495100
(005.119008) can0 7E5#0201F65555555555
(005.120872) can0 7E4#0041F680
(005.130094) can0 7E3#02010D5555555555
(005.131054) can0 7E2#00410D52
(005.133072) can0 7E1#0201495555555555
(005.134084) can0 7E0#0041495200
(005.145028) can0 7E5#0201F65555555555
(005.146986) can0 7E4#0041F680
(005.155090) can0 7E9#0201F45555555555
(005.157033) can0 7E8#0041F40080
(005.159060) can0 7E1#0201495555555555
(005.161033) can0 7E0#0041495300
(005.170976) can0 7E5#0201F65555555555
(005.172954) can0 7E4#0041F680
(005.180054) can0 7E7#0201F55555555555
(005.181010) can0 7E6#0041F500
(005.184942) can0 7E1#0201495555555555
(005.185922) can0 7E0#0041495400
(005.197000) can0 7E5#0201F65555555555
(005.198936) can0 7E4#0041F680
(005.205059) can0 7E3#0201115555555555
(005.206981) can0 7E2#00411156
(005.211046) can0 7E1#0201495555555555
(005.213018) can0 7E0#0041495600
(005.222993) can0 7E5#0201F65555555555
(005.224962) can0 7E4#0041F680
(005.231114) can0 7E3#02010D5555555555
(005.232848) can0 7E2#00410D58
(005.236891) can0 7E1#0201495555555555
(005.237857) can0 7E0#0041495700
(005.249016) can0 7E5#0201F65555555555
(005.250968) can0 7E4#0041F680
(005.256025) can0 7E9#0201F45555555555
(005.259137) can0 7E8#0041F40080
(005.263142) can0 7E1#0201495555555555
(005.265106) can0 7E0#0041495900
(005.275177) can0 7E5#0201F65555555555
(005.276893) can0 7E4#0041F680
(005.281050) can0 7E7#0201F55555555555
(005.289975) can0 7E1#0201495555555555
(005.291006) can0 7E0#0041495A00
(005.292113) can0 7E6#0041F500
(005.301017) can0 7E5#0201F65555555555
(005.302976) can0 7E4#0041F680
(005.306008) can0 7E3#0201115555555555
(005.307011) can0 7E2#0041115B
(005.316129) can0 7E1#0201495555555555
(005.318093) can0 7E0#0041495B00
(005.327994) can0 7E5#0201F65555555555
(005.330089) can0 7E4#0041F680
(005.331937) can0 7E3#02010D5555555555
(005.333000) can0 7E2#00410D5D
(005.341975) can0 7E1#0201495555555555
(005.342978) can0 7E0#0041495C00
(005.353894) can0 7E5#0201F65555555555
(005.355836) can0 7E4#0041F680
(005.356896) can0 7E9#0201F45555555555
(005.359873) can0 7E8#0041F40080
(005.367010) can0 7E1#0201495555555555
(005.368831) can0 7E0#0041495E00
(005.379949) can0 7E5#0201F65555555555
(005.381924) can0 7E7#0201F55555555555
(005.382094) can0 7E4#0041F680
(005.382886) can0 7E6#0041F500
(005.393970) can0 7E1#0201495555555555
(005.394935) can0 7E0#0041495F00
(005.405962) can0 7E5#0201F65555555555
(005.406898) can0 7E3#0201115555555555
(005.407746) can0 7E4#0041F680
(005.408877) can0 7E2#00411160
(005.419820) can0 7E1#0201495555555555
(005.421767) can0 7E0#0041496100
(005.431794) can0 7E5#0201F65555555555
(005.432790) can0 7E3#02010D5555555555
(005.433717) can0 7E4#0041F680
(005.434800) can0 7E2#00410D62
(005.445924) can0 7E1#0201495555555555
(005.446760) can0 7E0#0041496200
(005.457890) can0 7E5#0201F65555555555
(005.458105) can0 7E9#0201F45555555555
(005.459834) can0 7E4#0041F680
(005.460877) can0 7E8#0041F40080
(005.471797) can0 7E1#0201495555555555
(005.473730) can0 7E0#0041496300
(005.482896) can0 7E7#0201F55555555555
(005.483910) can0 7E5#0201F65555555555
(005.484850) can0 7E6#0041F500
(005.485859) can0 7E4#0041F680
(005.497800) can0 7E1#0201495555555555
(005.498764) can0 7E0#0041496400
(005.507889) can0 7E3#0201115555555555
(005.508836) can0 7E2#00411165
(005.509879) can0 7E5#0201F65555555555
(005.512713) can0 7E4#0041F680
(005.523745) can0 7E1#0201495555555555
(005.525736) can0 7E0#0041496600
(005.533859) can0 7E3#02010D5555555555
(005.534861) can0 7E2#00410D67
(005.535864) can0 7E5#0201F65555555555
(005.537729) can0 7E4#0041F680
(005.549851) can0 7E1#0201495555555555
(005.550840) can0 7E0#0041496700
(005.558887) can0 7E9#0201F45555555555
(005.560781) can0 7E8#0041F40080
(005.561850) can0 7E5#0201F65555555555
(005.565120) can0 7E4#0041F680
(005.575810) can0 7E1#0201495555555555
(005.577780) can0 7E0#0041496800
(005.583822) can0 7E7#0201F55555555555
(005.584757) can0 7E6#0041F500
(005.587685) can0 7E5#0201F65555555555
(005.589729) can0 7E4#0041F680
(005.601856) can0 7E1#0201495555555555
(005.602730) can0 7E0#0041496A00
(005.608729) can0 7E3#0201115555555555
(005.610658) can0 7E2#0041116A
(005.613678) can0 7E5#0201F65555555555
(005.615647) can0 7E4#0041F680
(005.627817) can0 7E1#0201495555555555
(005.629755) can0 7E0#0041496B00
(005.634812) can0 7E3#02010D5555555555
(005.636679) can0 7E2#00410D6C
(005.639691) can0 7E5#0201F65555555555
(005.641653) can0 7E4#0041F680
(005.653682) can0 7E1#0201495555555555
(005.654692) can0 7E0#0041496C00
(005.659669) can0 7E9#0201F45555555555
(005.662634) can0 7E8#0041F40080
(005.665779) can0 7E5#0201F65555555555
(005.667717) can0 7E4#0041F680
(005.679793) can0 7E1#0201495555555555
(005.681736) can0 7E0#0041496E00
(005.684786) can0 7E7#0201F55555555555
(005.686739) can0 7E6#0041F500
(005.691756) can0 7E5#0201F65555555555
(005.693717) can0 7E4#0041F680
(005.705695) can0 7E1#0201495555555555
(005.706633) can0 7E0#0041496F00
(005.709638) can0 7E3#0201115555555555
(005.710614) can0 7E2#0041116F
(005.717760) can0 7E5#0201F65555555555
(005.719681) can0 7E4#0041F680
(005.731778) can0 7E1#0201495555555555
(005.733716) can0 7E0#0041497000
(005.735733) can0 7E3#02010D5555555555
(005.736774) can0 7E2#00410D71
(005.743726) can0 7E5#0201F65555555555
(005.747004) can0 7E4#0041F680
(005.757666) can0 7E1#0201495555555555
(005.758646) can0 7E0#0041497200
(005.760598) can0 7E9#0201F45555555555
(005.763585) can0 7E8#0041F40080
(005.769744) can0 7E5#0201F65555555555
(005.771670) can0 7E4#0041F680
(005.783715) can0 7E1#0201495555555555
(005.785723) can0 7E7#0201F55555555555
(005.785905) can0 7E0#0041497300
(005.786656) can0 7E6#0041F500
(005.798345) can0 7E5#0201F65555555555
(005.800529) can0 7E4#0041F680
(005.809587) can0 7E1#0201495555555555
(005.810589) can0 7E3#0201115555555555
(005.810772) can0 7E0#0041497400
(005.812546) can0 7E2#00411175
(005.822634) can0 7E5#0201F65555555555
(005.824503) can0 7E4#0041F680
(005.835699) can0 7E1#0201495555555555
(005.836695) can0 7E3#02010D5555555555
(005.837674) can0 7E0#0041497600
(005.838671) can0 7E2#00410D76
(005.848572) can0 7E5#0201F65555555555
(005.850483) can0 7E4#0041F680
(005.861679) can0 7E1#0201495555555555
(005.861890) can0 7E9#0201F45555555555
(005.862634) can0 7E0#0041497700
(005.864644) can0 7E8#0041F40080
(005.874673) can0 7E5#0201F65555555555
(005.876615) can0 7E4#0041F680
(005.886567) can0 7E7#0201F55555555555
(005.887542) can0 7E1#0201495555555555
(005.888475) can0 7E6#0041F500
(005.889516) can0 7E0#0041497800
(005.900685) can0 7E5#0201F65555555555
(005.902603) can0 7E4#0041F680
(005.911609) can0 7E3#0201115555555555
(005.912618) can0 7E2#0041117A
(005.913669) can0 7E1#0201495555555555
(005.914547) can0 7E0#0041497A00
(005.926643) can0 7E5#0201F65555555555
(005.928557) can0 7E4#0041F680
(005.937535) can0 7E3#02010D5555555555
(005.938628) can0 7E2#00410D7C
(005.939484) can0 7E1#0201495555555555
(005.941467) can0 7E0#0041497B00
(005.952634) can0 7E5#0201F65555555555
(005.954418) can0 7E4#0041F680
(005.962629) can0 7E9#0201F45555555555
(005.964478) can0 7E8#0041F40080
(005.965498) can0 7E1#0201495555555555
(005.966463) can0 7E0#0041497C00
(005.978519) can0 7E5#0201F65555555555
(005.980414) can0 7E4#0041F680
(005.987497) can0 7E7#0201F55555555555
(005.988552) can0 7E6#0041F500
(005.991588) can0 7E1#0201495555555555
(005.993479) can0 7E0#0041497E00
(006.004612) can0 7E5#0201F65555555555
(006.006499) can0 7E4#0041F680
(006.012472) can0 7E3#0201115555555555
(006.014552) can0 7E2#0041117F
(006.017579) can0 7E1#0201495555555555
(006.018608) can0 7E0#0041497F00
(006.033070) can0 7E5#0201F65555555555
(006.035364) can0 7E4#0041F680
(006.038436) can0 7E3#02010D5555555555
(006.040436) can0 7E2#00410D81
(006.043462) can0 7E1#0201495555555555
(006.045415) can0 7E0#0041498000
(006.057480) can0 7E5#0201F65555555555
(006.059499) can0 7E4#0041F680
(006.063525) can0 7E9#0201F45555555555
(006.066522) can0 7E8#0041F40080
(006.069570) can0 7E1#0201495555555555
(006.070563) can0 7E0#0041498200
(006.083447) can0 7E5#0201F65555555555
(006.085368) can0 7E4#0041F680
(006.088560) can0 7E7#0201F55555555555
(006.090478) can0 7E6#0041F500
(006.095509) can0 7E1#0201495555555555
(006.097524) can0 7E0#0041498300
(006.109559) can0 7E5#0201F65555555555
(006.111492) can0 7E4#0041F680
(006.113517) can0 7E3#0201115555555555
(006.114547) can0 7E2#00411184
(006.121425) can0 7E1#0201495555555555
(006.122362) can0 7E0#0041498400
(006.135423) can0 7E5#0201F65555555555
(006.137326) can0 7E4#0041F680
(006.139415) can0 7E3#02010D5555555555
(006.140390) can0 7E2#00410D86
(006.147507) can0 7E1#0201495555555555
(006.149481) can0 7E0#0041498600
(006.161510) can0 7E5#0201F65555555555
(006.163444) can0 7E4#0041F680
(006.164545) can0 7E9#0201F45555555555
(006.167365) can0 7E8#0041F40080
(006.173384) can0 7E1#0201495555555555
(006.174357) can0 7E0#0041498700
(006.187493) can0 7E5#0201F65555555555
(006.189502) can0 7E7#0201F55555555555
(006.189669) can0 7E4#0041F680
(006.190374) can0 7E6#0041F500
(006.199360) can0 7E1#0201495555555555
(006.201302) can0 7E0#0041498800
(006.214380) can0 7E3#0201115555555555
(006.216292) can0 7E2#00411189
(006.219113) can0 7E5#0201F65555555555
(006.221298) can0 7E4#0041F680
(006.225349) can0 7E1#0201495555555555
(006.226338) can0 7E0#0041498A00
(006.240469) can0 7E3#02010D5555555555
(006.242387) can0 7E2#00410D8B
(006.243359) can0 7E5#0201F65555555555
(006.245396) can0 7E4#0041F680
(006.251459) can0 7E1#0201495555555555
(006.253429) can0 7E0#0041498B00
(006.265365) can0 7E9#0201F45555555555
(006.268308) can0 7E8#0041F40080
(006.269309) can0 7E5#0201F65555555555
(006.271353) can0 7E4#0041F680
(006.277456) can0 7E1#0201495555555555
(006.278445) can0 7E0#0041498C00
(006.290359) can0 7E7#0201F55555555555
(006.292264) can0 7E6#0041F500
(006.295326) can0 7E5#0201F65555555555
(006.297284) can0 7E4#0041F680
(006.303423) can0 7E1#0201495555555555
(006.305390) can0 7E0#0041498E00
(006.315327) can0 7E3#0201115555555555
(006.316253) can0 7E2#0041118E
(006.321302) can0 7E5#0201F65555555555
(006.323241) can0 7E4#0041F680
(006.329418) can0 7E1#0201495555555555
(006.330409) can0 7E0#0041498F00
(006.341320) can0 7E3#02010D5555555555
(006.342252) can0 7E2#00410D90
(006.347313) can0 7E5#0201F65555555555
(006.349225) can0 7E4#0041F680
(006.355271) can0 7E1#0201495555555555
(006.357037) can0 7E0#0041499000
(006.367279) can0 7E9#0201F45555555555
(006.369193) can0 7E8#0041F40080
(006.373332) can0 7E5#0201F65555555555
(006.375242) can0 7E4#0041F680
(006.381332) can0 7E1#0201495555555555
(006.382317) can0 7E0#0041499200
(006.391390) can0 7E7#0201F55555555555
(006.392280) can0 7E6#0041F500
(006.399448) can0 7E5#0201F65555555555
(006.401219) can0 7E4#0041F680
(006.407424) can0 7E1#0201495555555555
(006.409240) can0 7E0#0041499300
(006.417301) can0 7E3#0201115555555555
(006.419228) can0 7E2#00411194
(006.425400) can0 7E5#0201F65555555555
(006.427345) can0 7E4#0041F680
(006.432417) can0 7E1#0201495555555555
(006.433376) can0 7E0#0041499400
(006.443408) can0 7E3#02010D5555555555
(006.445342) can0 7E2#00410D96
(006.451305) can0 7E5#0201F65555555555
(006.451849) can0 7E4#0041F680
(006.458301) can0 7E1#0201495555555555
(006.460230) can0 7E0#0041499500
(006.468379) can0 7E9#0201F45555555555
(006.471328) can0 7E8#0041F40080
(006.477377) can0 7E5#0201F65555555555
(006.479322) can0 7E4#0041F680
(006.484372) can0 7E1#0201495555555555
(006.485343) can0 7E0#0041499700
(006.493385) can0 7E7#0201F55555555555
(006.495179) can0 7E6#0041F500
(006.503312) can0 7E5#0201F65555555555
(006.505299) can0 7E4#0041F680
(006.510248) can0 7E1#0201495555555555
(006.512182) can0 7E0#0041499800
(006.519368) can0 7E3#0201115555555555
(006.520299) can0 7E2#00411199
(006.529288) can0 7E5#0201F65555555555
(006.531178) can0 7E4#0041F680
(006.536225) can0 7E1#0201495555555555
(006.537179) can0 7E0#0041499900
(006.545260) can0 7E3#02010D5555555555
(006.546921) can0 7E2#00410D9B
(006.555249) can0 7E5#0201F65555555555
(006.557243) can0 7E4#0041F680
(006.562228) can0 7E1#0201495555555555
(006.564168) can0 7E0#0041499B00
(006.570351) can0 7E9#0201F45555555555
(006.573175) can0 7E8#0041F40080
(006.581307) can0 7E5#0201F65555555555
(006.583235) can0 7E4#0041F680
(006.588218) can0 7E1#0201495555555555
(006.589178) can0 7E0#0041499C00
(006.595229) can0 7E7#0201F55555555555
(006.596116) can0 7E6#0041F500
(006.607310) can0 7E5#0201F65555555555
(006.609218) can0 7E4#0041F680
(006.614307) can0 7E1#0201495555555555
(006.616245) can0 7E0#0041499D00
(006.620186) can0 7E3#0201115555555555
(006.622120) can0 7E2#0041119E
(006.633283) can0 7E5#0201F65555555555
(006.635117) can0 7E4#0041F680
(006.640983) can0 7E1#0201495555555555
(006.642183) can0 7E0#0041499F00
(006.646179) can0 7E3#02010D5555555555
(006.648133) can0 7E2#00410DA0
(006.659268) can0 7E5#0201F65555555555
(006.661188) can0 7E4#0041F680
(006.665259) can0 7E1#0201495555555555
(006.667093) can0 7E0#004149A000
(006.671137) can0 7E9#0201F45555555555
(006.674235) can0 7E8#0041F40080
(006.685224) can0 7E5#0201F65555555555
(006.687054) can0 7E4#0041F680
(006.691194) can0 7E1#0201495555555555
(006.692122) can0 7E0#004149A100
(006.696196) can0 7E7#0201F55555555555
(006.698072) can0 7E6#0041F500
(006.711227) can0 7E5#0201F65555555555
(006.713067) can0 7E4#0041F600
(006.717235) can0 7E1#0201495555555555
(006.719182) can0 7E0#004149A300
(006.721236) can0 7E3#0201115555555555
(006.722068) can0 7E2#004111A3
(006.737125) can0 7E5#0201F65555555555
(006.739024) can0 7E4#0041F600
(006.743119) can0 7E1#0201495555555555
(006.744068) can0 7E0#004149A400
(006.747123) can0 7E3#02010D5555555555
(006.748078) can0 7E2#00410DA5
(006.763134) can0 7E5#0201F65555555555
(006.765022) can0 7E4#0041F600
(006.769203) can0 7E1#0201495555555555
(006.771165) can0 7E0#004149A500
(006.772228) can0 7E9#0201F45555555555
(006.774154) can0 7E8#0041F40000
(006.789114) can0 7E5#0201F65555555555
(006.791024) can0 7E4#0041F600
(006.795138) can0 7E1#0201495555555555
(006.796086) can0 7E0#004149A700
(006.797111) can0 7E7#0201F55555555555
(006.798083) can0 7E6#0041F500
(006.815228) can0 7E5#0201F65555555555
(006.817159) can0 7E4#0041F600
(006.821216) can0 7E1#0201495555555555
(006.822222) can0 7E3#0201115555555555
(006.823092) can0 7E0#004149A800
(006.824713) can0 7E2#004111A8
(006.841268) can0 7E5#0201F65555555555
(006.843067) can0 7E4#0041F600
(006.847137) can0 7E1#0201495555555555
(006.848123) can0 7E3#02010D5555555555
(006.848305) can0 7E0#004149A900
(006.850046) can0 7E2#00410DAA
(006.867122) can0 7E5#0201F65555555555
(006.869037) can0 7E4#0041F600
(006.873102) can0 7E1#0201495555555555
(006.873492) can0 7E9#0201F45555555555
(006.874996) can0 7E0#004149AB00
(006.876073) can0 7E8#0041F40000
(006.893200) can0 7E5#0201F65555555555
(006.895108) can0 7E4#0041F600
(006.898225) can0 7E7#0201F55555555555
(006.899183) can0 7E1#0201495555555555
(006.900148) can0 7E0#004149AC00
(006.900302) can0 7E6#0041F500
(006.922301) can0 7E5#0201F65555555555
(006.923100) can0 7E3#0201115555555555
(006.923982) can0 7E4#0041F600
(006.924151) can0 7E2#004111AD
(006.925025) can0 7E1#0201495555555555
(006.927051) can0 7E0#004149AD00
(006.948057) can0 7E5#0201F65555555555
(006.949002) can0 7E3#02010D5555555555
(006.949986) can0 7E2#00410DAF
(006.950138) can0 7E4#0041F600
(006.951045) can0 7E1#0201495555555555
(006.951959) can0 7E0#004149AF00
(006.974111) can0 7E9#0201F45555555555
(006.974322) can0 7E5#0201F65555555555
(006.975999) can0 7E4#0041F600
(006.976191) can0 7E8#0041F40000
(006.977055) can0 7E1#0201495555555555
(006.979116) can0 7E0#004149B000
(006.999125) can0 7E7#0201F55555555555
(007.000123) can0 7E5#0201F65555555555
(007.000285) can0 7E6#0041F500
(007.002105) can0 7E4#0041F600
(007.003066) can0 7E1#0201495555555555
(007.003998) can0 7E0#004149B100
(007.024067) can0 7E3#0201115555555555
(007.026086) can0 7E5#0201F65555555555
(007.026247) can0 7E2#004111B3
(007.027919) can0 7E4#0041F600
(007.028999) can0 7E1#0201495555555555
(007.030933) can0 7E0#004149B300
(007.050095) can0 7E3#02010D5555555555
(007.052020) can0 7E2#00410DB5
(007.052245) can0 7E5#0201F65555555555
(007.054049) can0 7E4#0041F600
(007.055126) can0 7E1#0201495555555555
(007.056008) can0 7E0#004149B400
(007.075093) can0 7E9#0201F45555555555
(007.078088) can0 7E5#0201F65555555555
(007.078262) can0 7E8#0041F40000
(007.080031) can0 7E4#0041F600
(007.081076) can0 7E1#0201495555555555
(007.083041) can0 7E0#004149B500
(007.100073) can0 7E7#0201F55555555555
(007.102004) can0 7E6#0041F500
(007.103914) can0 7E5#0201F65555555555
(007.105974) can0 7E4#0041F600
(007.107037) can0 7E1#0201495555555555
(007.107993) can0 7E0#004149B700
(007.125069) can0 7E3#0201115555555555
(007.126024) can0 7E2#004111B8
(007.130025) can0 7E5#0201F65555555555
(007.131997) can0 7E4#0041F600
(007.133057) can0 7E1#0201495555555555
(007.134895) can0 7E0#004149B800
(007.150929) can0 7E3#02010D5555555555
(007.151861) can0 7E2#00410DBA
(007.156677) can0 7E5#0201F65555555555
(007.158866) can0 7E4#0041F600
(007.159089) can0 7E1#0201495555555555
(007.159881) can0 7E0#004149B900
(007.175962) can0 7E9#0201F45555555555
(007.177926) can0 7E8#0041F40000
(007.180950) can0 7E5#0201F65555555555
(007.182837) can0 7E4#0041F600
(007.184900) can0 7E1#0201495555555555
(007.186859) can0 7E0#004149BB00
(007.201465) can0 7E7#0201F55555555555
(007.202877) can0 7E6#0041F500
(007.207934) can0 7E5#0201F65555555555
(007.209851) can0 7E4#0041F600
(007.211881) can0 7E1#0201495555555555
(007.212834) can0 7E0#004149BC00
(007.226003) can0 7E3#0201115555555555
(007.227928) can0 7E2#004111BD
(007.233007) can0 7E5#0201F65555555555
(007.234927) can0 7E4#0041F600
(007.236991) can0 7E1#0201495555555555
(007.238924) can0 7E0#004149BD00
(007.251889) can0 7E3#02010D5555555555
(007.253820) can0 7E2#00410DBF
(007.259869) can0 7E5#0201F65555555555
(007.261810) can0 7E4#0041F600
(007.263947) can0 7E1#0201495555555555
(007.264996) can0 7E0#004149BF00
(007.276969) can0 7E9#0201F45555555555
(007.279924) can0 7E8#0041F40000
(007.285971) can0 7E5#0201F65555555555
(007.287880) can0 7E4#0041F600
(007.290865) can0 7E1#0201495555555555
(007.292784) can0 7E0#004149C000
(007.301893) can0 7E7#0201F55555555555
(007.303819) can0 7E6#0041F500
(007.311938) can0 7E5#0201F65555555555
(007.313863) can0 7E4#0041F600
(007.316956) can0 7E1#0201495555555555
(007.317929) can0 7E0#004149C100
(007.326849) can0 7E3#0201115555555555
(007.327809) can0 7E2#004111C2
(007.337878) can0 7E5#0201F65555555555
(007.339754) can0 7E4#0041F600
(007.343978) can0 7E1#0201495555555555
(007.346757) can0 7E0#004149C300
(007.352827) can0 7E3#02010D5555555555
(007.353754) can0 7E2#00410DC4
(007.368798) can0 7E1#0201495555555555
(007.369004) can0 7E5#0201F65555555555
(007.369784) can0 7E0#004149C400
(007.370719) can0 7E4#0041F600
(007.377909) can0 7E9#0201F45555555555
(007.379859) can0 7E8#0041F40000
(007.394811) can0 7E5#0201F65555555555
(007.395025) can0 7E1#0201495555555555
(007.396763) can0 7E0#004149C500
(007.396935) can0 7E4#0041F600
(007.402912) can0 7E7#0201F55555555555
(007.403856) can0 7E6#0041F500
(007.420758) can0 7E1#0201495555555555
(007.420966) can0 7E5#0201F65555555555
(007.421740) can0 7E0#004149C700
(007.422745) can0 7E4#0041F600
(007.427777) can0 7E3#0201115555555555
(007.429737) can0 7E2#004111C7
(007.446797) can0 7E5#0201F65555555555
(007.447809) can0 7E1#0201495555555555
(007.448707) can0 7E4#0041F600
(007.449762) can0 7E0#004149C800
(007.453777) can0 7E3#02010D5555555555
(007.455751) can0 7E2#00410DC9
(007.472787) can0 7E5#0201F65555555555
(007.473766) can0 7E1#0201495555555555
(007.474668) can0 7E0#004149C900
(007.474838) can0 7E4#0041F600
(007.478722) can0 7E9#0201F45555555555
(007.481696) can0 7E8#0041F40000
(007.498757) can0 7E5#0201F65555555555
(007.499742) can0 7E1#0201495555555555
(007.500700) can0 7E4#0041F600
(007.501703) can0 7E0#004149CB00
(007.503733) can0 7E7#0201F55555555555
(007.505650) can0 7E6#0041F500
(007.524735) can0 7E5#0201F65555555555
(007.525691) can0 7E1#0201495555555555
(007.526651) can0 7E0#004149CC00
(007.526825) can0 7E4#0041F600
(007.528666) can0 7E3#0201115555555555
(007.529667) can0 7E2#004111CC
(007.551749) can0 7E1#0201495555555555
(007.553694) can0 7E0#004149CD00
(007.554666) can0 7E3#02010D5555555555
(007.555664) can0 7E2#00410DCE
(007.556743) can0 7E5#0201F65555555555
(007.558657) can0 7E4#0041F600
(007.577744) can0 7E1#0201495555555555
(007.578659) can0 7E0#004149CF00
(007.579674) can0 7E9#0201F45555555555
(007.581608) can0 7E8#0041F40000
(007.582703) can0 7E5#0201F65555555555
(007.584627) can0 7E4#0041F600
(007.603714) can0 7E1#0201495555555555
(007.604724) can0 7E7#0201F55555555555
(007.605601) can0 7E6#0041F500
(007.605791) can0 7E0#004149D000
(007.608689) can0 7E5#0201F65555555555
(007.610637) can0 7E4#0041F600
(007.629683) can0 7E1#0201495555555555
(007.629897) can0 7E3#0201115555555555
(007.630638) can0 7E0#004149D100
(007.631623) can0 7E2#004111D1
(007.634654) can0 7E5#0201F65555555555
(007.636581) can0 7E4#0041F600
(007.655778) can0 7E1#0201495555555555
(007.655987) can0 7E3#02010D5555555555
(007.657676) can0 7E2#00410DD4
(007.657861) can0 7E0#004149D300
(007.660731) can0 7E5#0201F65555555555
(007.662700) can0 7E4#0041F600
(007.680686) can0 7E9#0201F45555555555
(007.681763) can0 7E1#0201495555555555
(007.682550) can0 7E0#004149D400
(007.683634) can0 7E8#0041F40000
(007.686737) can0 7E5#0201F65555555555
(007.688641) can0 7E4#0041F600
(007.705715) can0 7E7#0201F55555555555
(007.707719) can0 7E1#0201495555555555
(007.707885) can0 7E6#0041F500
(007.709651) can0 7E0#004149D500
(007.712601) can0 7E5#0201F65555555555
(007.714539) can0 7E4#0041F600
(007.730717) can0 7E3#0201115555555555
(007.731685) can0 7E2#004111D7
(007.733684) can0 7E1#0201495555555555
(007.734687) can0 7E0#004149D600
(007.738762) can0 7E5#0201F65555555555
(007.740608) can0 7E4#0041F600
(007.756873) can0 7E3#02010D5555555555
(007.757593) can0 7E2#00410DD9
(007.759588) can0 7E1#0201495555555555
(007.761540) can0 7E0#004149D800
(007.767952) can0 7E5#0201F65555555555
(007.769502) can0 7E4#0041F600
(007.781727) can0 7E9#0201F45555555555
(007.783626) can0 7E8#0041F40000
(007.785668) can0 7E1#0201495555555555
(007.786677) can0 7E0#004149D900
(007.792595) can0 7E5#0201F65555555555
(007.794494) can0 7E4#0041F600
(007.806756) can0 7E7#0201F55555555555
(007.807769) can0 7E6#0041F500
(007.811693) can0 7E1#0201495555555555
(007.813653) can0 7E0#004149DB00
(007.818709) can0 7E5#0201F65555555555
(007.820622) can0 7E4#0041F600
(007.831683) can0 7E3#0201115555555555
(007.833613) can0 7E2#004111DC
(007.837658) can0 7E1#0201495555555555
(007.838700) can0 7E0#004149DC00
(007.844696) can0 7E5#0201F65555555555
(007.846629) can0 7E4#0041F600
(007.857718) can0 7E3#02010D5555555555
(007.859628) can0 7E2#00410DDE
(007.863721) can0 7E1#0201495555555555
(007.865593) can0 7E0#004149DD00
(007.875162) can0 7E5#0201F65555555555
(007.877578) can0 7E4#0041F600
(007.882607) can0 7E9#0201F45555555555
(007.885613) can0 7E8#0041F40000
(007.889631) can0 7E1#0201495555555555
(007.890679) can0 7E0#004149DE00
(007.899550) can0 7E5#0201F65555555555
(007.901460) can0 7E4#0041F600
(007.907718) can0 7E7#0201F55555555555
(007.909465) can0 7E6#0041F500
(007.915514) can0 7E1#0201495555555555
(007.917490) can0 7E0#004149E000
(007.925547) can0 7E5#0201F65555555555
(007.927424) can0 7E4#0041F600
(007.932537) can0 7E3#0201115555555555
(007.933475) can0 7E2#004111E1
(007.941547) can0 7E1#0201495555555555
(007.942476) can0 7E0#004149E100
(007.956571) can0 7E5#0201F65555555555
(007.958509) can0 7E3#02010D5555555555
(007.958676) can0 7E4#0041F600
(007.959486) can0 7E2#00410DE3
(007.967496) can0 7E1#0201495555555555
(007.969450) can0 7E0#004149E200
(007.981517) can0 7E5#0201F65555555555
(007.983492) can0 7E9#0201F45555555555
(007.983660) can0 7E4#0041F600
(007.985482) can0 7E8#0041F40000
(007.993480) can0 7E1#0201495555555555
(007.994447) can0 7E0#004149E400
(008.007459) can0 7E5#0201F65555555555
(008.008497) can0 7E7#0201F55555555555
(008.009428) can0 7E4#0041F600
(008.009601) can0 7E6#0041F500
(008.019489) can0 7E1#0201495555555555
(008.021442) can0 7E0#004149E500
(008.033508) can0 7E3#0201115555555555
(008.033718) can0 7E5#0201F65555555555
(008.035382) can0 7E4#0041F600
(008.035550) can0 7E2#004111E6
(008.045443) can0 7E1#0201495555555555
(008.046450) can0 7E0#004149E600
(008.059480) can0 7E5#0201F65555555555
(008.059685) can0 7E3#02010D5555555555
(008.061381) can0 7E2#00410DE8
(008.061553) can0 7E4#0041F600
(008.071462) can0 7E1#0201495555555555
(008.073506) can0 7E0#004149E800
(008.084568) can0 7E9#0201F45555555555
(008.085550) can0 7E5#0201F65555555555
(008.087376) can0 7E4#0041F600
(008.087570) can0 7E8#0041F40000
(008.097449) can0 7E1#0201495555555555
(008.098393) can0 7E0#004149E900
(008.109419) can0 7E7#0201F55555555555
(008.111384) can0 7E5#0201F65555555555
(008.111553) can0 7E6#0041F500
(008.113483) can0 7E4#0041F600
(008.123461) can0 7E1#0201495555555555
(008.125375) can0 7E0#004149EA00
(008.134398) can0 7E3#0201115555555555
(008.135361) can0 7E2#004111EB
(008.143745) can0 7E5#0201F65555555555
(008.145352) can0 7E4#0041F600
(008.149440) can0 7E1#0201495555555555
(008.150385) can0 7E0#004149EC00
(008.160541) can0 7E3#02010D5555555555
(008.161396) can0 7E2#00410DED
(008.168421) can0 7E5#0201F65555555555
(008.170352) can0 7E4#0041F600
(008.175391) can0 7E1#0201495555555555
(008.177376) can0 7E0#004149ED00
(008.185378) can0 7E9#0201F45555555555
(008.187335) can0 7E8#0041F40000
(008.194394) can0 7E5#0201F65555555555
(008.196273) can0 7E4#0041F600
(008.201368) can0 7E1#0201495555555555
(008.202322) can0 7E0#004149EE00
(008.210360) can0 7E7#0201F55555555555
(008.211371) can0 7E6#0041F500
(008.220489) can0 7E5#0201F65555555555
(008.222409) can0 7E4#0041F600
(008.227492) can0 7E1#0201495555555555
(008.229339) can0 7E0#004149F000
(008.235354) can0 7E3#0201115555555555
(008.237293) can0 7E2#004111F0
(008.246366) can0 7E5#0201F65555555555
(008.248296) can0 7E4#0041F600
(008.253467) can0 7E1#0201495555555555
(008.254491) can0 7E0#004149F100
(008.262391) can0 7E3#02010D5555555555
(008.264316) can0 7E2#00410DF3
(008.272354) can0 7E5#0201F65555555555
(008.274295) can0 7E4#0041F600
(008.279313) can0 7E1#0201495555555555
(008.281247) can0 7E0#004149F200
(008.287330) can0 7E9#0201F45555555555
(008.290275) can0 7E8#0041F40000
(008.298321) can0 7E5#0201F65555555555
(008.300273) can0 7E4#0041F600
(008.305308) can0 7E1#0201495555555555
(008.306289) can0 7E0#004149F400
(008.311456) can0 7E7#0201F55555555555
(008.313388) can0 7E6#0041F500
(008.324318) can0 7E5#0201F65555555555
(008.328068) can0 7E4#0041F600
(008.331285) can0 7E1#0201495555555555
(008.333247) can0 7E0#004149F500
(008.337283) can0 7E3#0201115555555555
(008.338245) can0 7E2#004111F6
(008.350424) can0 7E5#0201F65555555555
(008.352337) can0 7E4#0041F600
(008.357402) can0 7E1#0201495555555555
(008.358371) can0 7E0#004149F600
(008.363401) can0 7E3#02010D5555555555
(008.364371) can0 7E2#00410DF8
(008.378274) can0 7E5#0201F65555555555
(008.380192) can0 7E4#0041F600
(008.383285) can0 7E1#0201495555555555
(008.385247) can0 7E0#004149F800
(008.388265) can0 7E9#0201F45555555555
(008.390219) can0 7E8#0041F40000
(008.403375) can0 7E5#0201F65555555555
(008.405310) can0 7E4#0041F600
(008.409375) can0 7E1#0201495555555555
(008.410298) can0 7E0#004149F900
(008.413248) can0 7E7#0201F55555555555
(008.414197) can0 7E6#0041F500
(008.429244) can0 7E5#0201F65555555555
(008.431196) can0 7E4#0041F600
(008.435222) can0 7E1#0201495555555555
(008.437211) can0 7E0#004149FA00
(008.438266) can0 7E3#0201115555555555
(008.440200) can0 7E2#004111FB
(008.455344) can0 7E5#0201F65555555555
(008.457173) can0 7E4#0041F600
(008.461363) can0 7E1#0201495555555555
(008.462373) can0 7E0#004149FC00
(008.464196) can0 7E3#02010D5555555555
(008.466136) can0 7E2#00410DFD
(008.483570) can0 7E5#0201F65555555555
(008.486362) can0 7E4#0041F600
(008.487416) can0 7E1#0201495555555555
(008.489363) can0 7E9#0201F45555555555
(008.489551) can0 7E0#004149FD00
(008.492335) can0 7E8#0041F40000
(008.508230) can0 7E5#0201F65555555555
(008.510168) can0 7E4#0041F600
(008.513209) can0 7E1#0201495555555555
(008.514218) can0 7E7#0201F55555555555
(008.514386) can0 7E0#004149FE00
(008.516164) can0 7E6#0041F500
(008.534192) can0 7E5#0201F65555555555
(008.536065) can0 7E4#0041F600
(008.539125) can0 7E3#0201115555555555
(008.539349) can0 7E1#0201495555555555
(008.540172) can0 7E2#004111FD
(008.541099) can0 7E0#004149FD00
(008.563252) can0 7E5#0201F65555555555
(008.565080) can0 7E3#02010D5555555555
(008.565307) can0 7E1#0201495555555555
(008.565477) can0 7E4#0041F600
(008.566096) can0 7E0#004149FC00
(008.566232) can0 7E2#00410DFD
(008.588147) can0 7E5#0201F65555555555
(008.590088) can0 7E9#0201F45555555555
(008.590256) can0 7E4#0041F600
(008.591088) can0 7E1#0201495555555555
(008.592042) can0 7E8#0041F40000
(008.593073) can0 7E0#004149FB00
(008.614150) can0 7E5#0201F65555555555
(008.615116) can0 7E7#0201F55555555555
(008.616124) can0 7E6#0041F500
(008.616296) can0 7E4#0041F600
(008.617120) can0 7E1#0201495555555555
(008.618065) can0 7E0#004149FA00
(008.640198) can0 7E3#0201115555555555
(008.640409) can0 7E5#0201F65555555555
(008.642009) can0 7E4#0041F600
(008.642179) can0 7E2#004111F8
(008.643120) can0 7E1#0201495555555555
(008.645011) can0 7E0#004149F800
(008.666130) can0 7E5#0201F65555555555
(008.666343) can0 7E3#02010D5555555555
(008.668053) can0 7E4#0041F600
(008.668226) can0 7E2#00410DF8
(008.669120) can0 7E1#0201495555555555
(008.670150) can0 7E0#004149F700
(008.691097) can0 7E9#0201F45555555555
(008.692180) can0 7E5#0201F65555555555
(008.694107) can0 7E4#0041F600
(008.694301) can0 7E8#0041F40000
(008.695208) can0 7E1#0201495555555555
(008.697038) can0 7E0#004149F600
(008.716032) can0 7E7#0201F55555555555
(008.718015) can0 7E5#0201F65555555555
(008.718183) can0 7E6#0041F500
(008.719958) can0 7E4#0041F600
(008.721059) can0 7E1#0201495555555555
(008.721999) can0 7E0#004149F400
(008.741221) can0 7E3#0201115555555555
(008.742282) can0 7E2#004111F3
(008.744315) can0 7E5#0201F65555555555
(008.746066) can0 7E4#0041F600
(008.747141) can0 7E1#0201495555555555
(008.749104) can0 7E0#004149F300
(008.767166) can0 7E3#02010D5555555555
(008.768113) can0 7E2#00410DF2
(008.773123) can0 7E1#0201495555555555
(008.774195) can0 7E0#004149F200
(008.787275) can0 7E5#0201F65555555555
(008.789209) can0 7E4#0041F600
(008.792168) can0 7E9#0201F45555555555
(008.794113) can0 7E8#0041F40000
(008.799113) can0 7E1#0201495555555555
(008.801519) can0 7E0#004149F000
(008.813146) can0 7E5#0201F65555555555
(008.815042) can0 7E4#0041F600
(008.817052) can0 7E7#0201F55555555555
(008.818106) can0 7E6#0041F500
(008.825115) can0 7E1#0201495555555555
(008.826142) can0 7E0#004149EF00
(008.838999) can0 7E5#0201F65555555555
(008.840943) can0 7E4#0041F600
(008.842018) can0 7E3#0201115555555555
(008.843907) can0 7E2#004111EE
(008.850993) can0 7E1#0201495555555555
(008.852942) can0 7E0#004149EE00
(008.864982) can0 7E5#0201F65555555555
(008.866905) can0 7E4#0041F600
(008.868018) can0 7E3#02010D5555555555
(008.869914) can0 7E2#00410DED
(008.876955) can0 7E1#0201495555555555
(008.877925) can0 7E0#004149EC00
(008.892971) can0 7E9#0201F45555555555
(008.894622) can0 7E5#0201F65555555555
(008.894960) can0 7E8#0041F40000
(008.896898) can0 7E4#0041F600
(008.902958) can0 7E1#0201495555555555
(008.904980) can0 7E0#004149EB00
(008.918076) can0 7E7#0201F55555555555
(008.919097) can0 7E5#0201F65555555555
(008.919912) can0 7E6#0041F500
(008.920931) can0 7E4#0041F600
(008.928978) can0 7E1#0201495555555555
(008.929909) can0 7E0#004149EA00
(008.942967) can0 7E3#0201115555555555
(008.943879) can0 7E2#004111E9
(008.945938) can0 7E5#0201F65555555555
(008.947898) can0 7E4#0041F600
(008.955039) can0 7E1#0201495555555555
(008.956999) can0 7E0#004149E800
(008.968957) can0 7E3#02010D5555555555
(008.969893) can0 7E2#00410DE8
(008.971934) can0 7E5#0201F65555555555
(008.973860) can0 7E4#0041F600
(008.982164) can0 7E1#0201495555555555
(008.983131) can0 7E0#004149E700
(008.994174) can0 7E9#0201F45555555555
(009.007082) can0 7E5#0201F65555555555
(009.007265) can0 7E8#0041F40000
(009.007937) can0 7E1#0201495555555555
(009.008901) can0 7E4#0041F600
(009.009992) can0 7E0#004149E600
(009.018922) can0 7E7#0201F55555555555
(009.019924) can0 7E6#0041F500
(009.031943) can0 7E5#0201F65555555555
(009.033907) can0 7E1#0201495555555555
(009.034076) can0 7E4#0041F600
(009.034957) can0 7E0#004149E400
(009.043893) can0 7E3#0201115555555555
(009.045863) can0 7E2#004111E3
(009.057933) can0 7E5#0201F65555555555
(009.059887) can0 7E1#0201495555555555
(009.060054) can0 7E4#0041F600
(009.061882) can0 7E0#004149E300
(009.069913) can0 7E3#02010D5555555555
(009.071829) can0 7E2#00410DE3
(009.085328) can0 7E5#0201F65555555555
(009.085889) can0 7E1#0201495555555555
(009.086918) can0 7E0#004149E200
(009.088846) can0 7E4#0041F600
(009.094876) can0 7E9#0201F45555555555
(009.097788) can0 7E8#0041F40000
(009.109942) can0 7E5#0201F65555555555
(009.111925) can0 7E1#0201495555555555
(009.112093) can0 7E4#0041F600
(009.113919) can0 7E0#004149E000
(009.119828) can0 7E7#0201F55555555555
(009.121748) can0 7E6#0041F500
(009.135841) can0 7E5#0201F65555555555
(009.137897) can0 7E1#0201495555555555
(009.138062) can0 7E4#0041F600
(009.138913) can0 7E0#004149DF00
(009.144943) can0 7E3#0201115555555555
(009.145908) can0 7E2#004111DE
(009.161927) can0 7E5#0201F65555555555
(009.163899) can0 7E1#0201495555555555
(009.164066) can0 7E4#0041F600
(009.167800) can0 7E0#004149DD00
(009.170782) can0 7E3#02010D5555555555
(009.171753) can0 7E2#00410DDE
(009.187826) can0 7E5#0201F65555555555
(009.189794) can0 7E1#0201495555555555
(009.189988) can0 7E4#0041F600
(009.190831) can0 7E0#004149DC00
(009.195784) can0 7E9#0201F45555555555
(009.197714) can0 7E8#0041F40000
(009.213747) can0 7E5#0201F65555555555
(009.215742) can0 7E1#0201495555555555
(009.215908) can0 7E4#0041F600
(009.218130) can0 7E0#004149DB00
(009.220693) can0 7E7#0201F55555555555
(009.221782) can0 7E6#0041F500
(009.239886) can0 7E5#0201F65555555555
(009.241764) can0 7E4#0041F600
(009.241993) can0 7E1#0201495555555555
(009.242812) can0 7E0#004149DA00
(009.245733) can0 7E3#0201115555555555
(009.247705) can0 7E2#004111D9
(009.265787) can0 7E5#0201F65555555555
(009.267714) can0 7E1#0201495555555555
(009.267882) can0 7E4#0041F600
(009.269722) can0 7E0#004149D800
(009.271729) can0 7E3#02010D5555555555
(009.273683) can0 7E2#00410DD9
(009.291748) can0 7E5#0201F65555555555
(009.293715) can0 7E1#0201495555555555
(009.293883) can0 7E4#0041F600
(009.294675) can0 7E0#004149D700
(009.296697) can0 7E9#0201F45555555555
(009.299677) can0 7E8#0041F40000
(009.317744) can0 7E5#0201F65555555555
(009.319697) can0 7E1#0201495555555555
(009.319859) can0 7E4#0041F600
(009.321750) can0 7E7#0201F55555555555
(009.321861) can0 7E0#004149D600
(009.323642) can0 7E6#0041F500
(009.343809) can0 7E5#0201F65555555555
(009.345708) can0 7E4#0041F600
(009.345936) can0 7E1#0201495555555555
(009.346809) can0 7E3#0201115555555555
(009.347008) can0 7E0#004149D400
(009.347730) can0 7E2#004111D4
(009.369708) can0 7E5#0201F65555555555
(009.371611) can0 7E4#0041F600
(009.371837) can0 7E1#0201495555555555
(009.372642) can0 7E3#02010D5555555555
(009.373617) can0 7E2#00410DD4
(009.373784) can0 7E0#004149D300
(009.395786) can0 7E5#0201F65555555555
(009.397751) can0 7E1#0201495555555555
(009.397984) can0 7E9#0201F45555555555
(009.398151) can0 7E4#0041F600
(009.398663) can0 7E0#004149D200
(009.399728) can0 7E8#0041F40000
(009.421773) can0 7E5#0201F65555555555
(009.422779) can0 7E7#0201F55555555555
(009.423669) can0 7E1#0201495555555555
(009.423841) can0 7E4#0041F600
(009.424016) can0 7E6#0041F500
(009.425590) can0 7E0#004149D000
(009.447683) can0 7E3#0201115555555555
(009.447893) can0 7E5#0201F65555555555
(009.449583) can0 7E1#0201495555555555
(009.449752) can0 7E2#004111CF
(009.449925) can0 7E4#0041F600
(009.452081) can0 7E0#004149CF00
(009.473746) can0 7E3#02010D5555555555
(009.473938) can0 7E5#0201F65555555555
(009.475656) can0 7E4#0041F600
(009.475885) can0 7E1#0201495555555555
(009.476052) can0 7E2#00410DCE
(009.477597) can0 7E0#004149CE00
(009.498661) can0 7E9#0201F45555555555
(009.500714) can0 7E5#0201F65555555555
(009.501625) can0 7E1#0201495555555555
(009.501816) can0 7E8#0041F40000
(009.502638) can0 7E0#004149CC00
(009.502821) can0 7E4#0041F600
(009.523754) can0 7E7#0201F55555555555
(009.525692) can0 7E5#0201F65555555555
(009.525865) can0 7E6#0041F500
(009.527593) can0 7E1#0201495555555555
(009.527733) can0 7E4#0041F600
(009.529558) can0 7E0#004149CB00
(009.548654) can0 7E3#0201115555555555
(009.549537) can0 7E2#004111CA
(009.551575) can0 7E5#0201F65555555555
(009.553575) can0 7E1#0201495555555555
(009.553730) can0 7E4#0041F600
(009.554662) can0 7E0#004149CA00
(009.574595) can0 7E3#02010D5555555555
(009.575474) can0 7E2#00410DC9
(009.577517) can0 7E5#0201F65555555555
(009.579490) can0 7E4#0041F600
(009.579694) can0 7E1#0201495555555555
(009.581490) can0 7E0#004149C800
(009.599562) can0 7E9#0201F45555555555
(009.601526) can0 7E8#0041F40000
(009.603583) can0 7E5#0201F65555555555
(009.605559) can0 7E1#0201495555555555
(009.605716) can0 7E4#0041F600
(009.606573) can0 7E0#004149C700
(009.624699) can0 7E7#0201F55555555555
(009.625606) can0 7E6#0041F500
(009.629649) can0 7E5#0201F65555555555
(009.631539) can0 7E4#0041F600
(009.631760) can0 7E1#0201495555555555
(009.633485) can0 7E0#004149C600
(009.649674) can0 7E3#0201115555555555
(009.651483) can0 7E2#004111C5
(009.655588) can0 7E5#0201F65555555555
(009.657541) can0 7E4#0041F600
(009.657778) can0 7E1#0201495555555555
(009.658573) can0 7E0#004149C400
(009.675632) can0 7E3#02010D5555555555
(009.677548) can0 7E2#00410DC4
(009.681607) can0 7E5#0201F65555555555
(009.683500) can0 7E1#0201495555555555
(009.683650) can0 7E4#0041F600
(009.685437) can0 7E0#004149C300
(009.700501) can0 7E9#0201F45555555555
(009.703478) can0 7E8#0041F40000
(009.709614) can0 7E1#0201495555555555
(009.710582) can0 7E0#004149C200
(009.713582) can0 7E5#0201F65555555555
(009.715402) can0 7E4#0041F600
(009.725610) can0 7E7#0201F55555555555
(009.727554) can0 7E6#0041F500
(009.735543) can0 7E1#0201495555555555
(009.737526) can0 7E0#004149C000
(009.739596) can0 7E5#0201F65555555555
(009.741479) can0 7E4#0041F600
(009.750592) can0 7E3#0201115555555555
(009.751507) can0 7E2#004111BF
(009.761683) can0 7E1#0201495555555555
(009.762649) can0 7E0#004149BF00
(009.765654) can0 7E5#0201F65555555555
(009.767614) can0 7E4#0041F600
(009.776528) can0 7E3#02010D5555555555
(009.777522) can0 7E2#00410DBF
(009.787541) can0 7E1#0201495555555555
(009.789507) can0 7E0#004149BE00
(009.791530) can0 7E5#0201F65555555555
(009.793435) can0 7E4#0041F600
(009.801496) can0 7E9#0201F45555555555
(009.803440) can0 7E8#0041F40000
(009.815535) can0 7E1#0201495555555555
(009.816422) can0 7E0#004149BC00
(009.817431) can0 7E5#0201F65555555555
(009.819324) can0 7E4#0041F600
(009.826409) can0 7E7#0201F55555555555
(009.827393) can0 7E6#0041F500
(009.841488) can0 7E1#0201495555555555
(009.843504) can0 7E5#0201F65555555555
(009.843686) can0 7E0#004149BB00
(009.845471) can0 7E4#0041F600
(009.851530) can0 7E3#0201115555555555
(009.853449) can0 7E2#004111BA
(009.867524) can0 7E1#0201495555555555
(009.868341) can0 7E0#004149BA00
(009.869400) can0 7E5#0201F65555555555
(009.871335) can0 7E4#0041F600
(009.877537) can0 7E3#02010D5555555555
(009.879377) can0 7E2#00410DBA
(009.893409) can0 7E1#0201495555555555
(009.895365) can0 7E5#0201F65555555555
(009.895545) can0 7E0#004149B800
(009.897351) can0 7E4#0041F600
(009.902400) can0 7E9#0201F45555555555
(009.905340) can0 7E8#0041F40000
(009.919359) can0 7E1#0201495555555555
(009.920344) can0 7E0#004149B700
(009.926095) can0 7E5#0201F65555555555
(009.927377) can0 7E7#0201F55555555555
(009.928272) can0 7E4#0041F600
(009.929317) can0 7E6#0041F500
(009.945462) can0 7E1#0201495555555555
(009.947273) can0 7E0#004149B600
(009.950348) can0 7E5#0201F65555555555
(009.952314) can0 7E3#0201115555555555
(009.952471) can0 7E4#0041F600
(009.953271) can0 7E2#004111B5
(009.971363) can0 7E1#0201495555555555
(009.972335) can0 7E0#004149B400
(009.976360) can0 7E5#0201F65555555555
(009.978318) can0 7E3#02010D5555555555
(009.978470) can0 7E4#0041F600
(009.979324) can0 7E2#00410DB4
(009.997332) can0 7E1#0201495555555555
(009.999283) can0 7E0#004149B300
(010.002311) can0 7E5#0201F65555555555
(010.004327) can0 7E9#0201F45555555555
(010.004486) can0 7E4#0041F600
(010.006249) can0 7E8#0041F40000
(010.023373) can0 7E1#0201495555555555
(010.024308) can0 7E0#004149B200
(010.028336) can0 7E5#0201F65555555555
(010.029485) can0 7E7#0201F55555555555
(010.030348) can0 7E4#0041F600
(010.030517) can0 7E6#0041F500
(010.049395) can0 7E1#0201495555555555
(010.051344) can0 7E0#004149B000
(010.054400) can0 7E5#0201F65555555555
(010.055407) can0 7E3#0201115555555555
(010.056216) can0 7E4#0041F600
(010.057264) can0 7E2#004111B0
(010.075292) can0 7E1#0201495555555555
(010.076227) can0 7E0#004149AF00
(010.080255) can0 7E5#0201F65555555555
(010.081274) can0 7E3#02010D5555555555
(010.082185) can0 7E4#0041F600
(010.083206) can0 7E2#00410DAF
(010.101361) can0 7E1#0201495555555555
(010.103272) can0 7E0#004149AE00
(010.106263) can0 7E9#0201F45555555555
(010.112725) can0 7E5#0201F65555555555
(010.113184) can0 7E8#0041F40000
(010.115176) can0 7E4#0041F600
(010.127373) can0 7E1#0201495555555555
(010.128349) can0 7E0#004149AD00
(010.131331) can0 7E7#0201F55555555555
(010.133292) can0 7E6#0041F500
(010.137226) can0 7E5#0201F65555555555
(010.139162) can0 7E4#0041F600
(010.153304) can0 7E1#0201495555555555
(010.154204) can0 7E0#004149AB00
(010.156209) can0 7E3#0201115555555555
(010.157259) can0 7E2#004111AB
(010.163248) can0 7E5#0201F65555555555
(010.165248) can0 7E4#0041F600
(010.179344) can0 7E1#0201495555555555
(010.180284) can0 7E0#004149AA00
(010.182328) can0 7E3#02010D5555555555
(010.183282) can0 7E2#00410DAA
(010.189335) can0 7E5#0201F65555555555
(010.191198) can0 7E4#0041F600
(010.205182) can0 7E1#0201495555555555
(010.207157) can0 7E9#0201F45555555555
(010.207339) can0 7E0#004149A800
(010.209153) can0 7E8#0041F40000
(010.215257) can0 7E5#0201F65555555555
(010.217276) can0 7E4#0041F600
(010.231292) can0 7E1#0201495555555555
(010.232188) can0 7E7#0201F55555555555
(010.232371) can0 7E0#004149A700
(010.233247) can0 7E6#0041F500
(010.241294) can0 7E5#0201F65555555555
(010.243236) can0 7E4#0041F600
(010.257282) can0 7E1#0201495555555555
(010.257492) can0 7E3#0201115555555555
(010.259058) can0 7E2#004111A6
(010.259245) can0 7E0#004149A600
(010.267289) can0 7E5#0201F65555555555
(010.269118) can0 7E4#0041F600
(010.283147) can0 7E1#0201495555555555
(010.283357) can0 7E3#02010D5555555555
(010.284121) can0 7E0#004149A500
(010.285076) can0 7E2#00410DA5
(010.298712) can0 7E5#0201F65555555555
(010.301043) can0 7E4#0041F600
(010.308177) can0 7E9#0201F45555555555
(010.309173) can0 7E1#0201495555555555
(010.311147) can0 7E8#0041F40000
(010.311333) can0 7E0#004149A300
(010.323121) can0 7E5#0201F65555555555
(010.325020) can0 7E4#0041F600
(010.333115) can0 7E7#0201F55555555555
(010.335057) can0 7E6#0041F500
(010.335284) can0 7E1#0201495555555555
(010.336073) can0 7E0#004149A200
(010.349172) can0 7E5#0201F65555555555
(010.351184) can0 7E4#0041F600
(010.358213) can0 7E3#0201115555555555
(010.359211) can0 7E2#004111A0
(010.361112) can0 7E1#0201495555555555
(010.363039) can0 7E0#004149A100
(010.375209) can0 7E5#0201F65555555555
(010.377064) can0 7E4#0041F600
(010.384197) can0 7E3#02010D5555555555
(010.385109) can0 7E2#00410DA0
(010.387098) can0 7E1#0201495555555555
(010.388026) can0 7E0#0041499F00
(010.402092) can0 7E5#0201F65555555555
(010.403998) can0 7E4#0041F600
(010.409090) can0 7E9#0201F45555555555
(010.411030) can0 7E8#0041F40000
(010.413089) can0 7E1#0201495555555555
(010.415037) can0 7E0#0041499E00
(010.428212) can0 7E5#0201F65555555555
(010.430140) can0 7E4#0041F600
(010.434087) can0 7E7#0201F55555555555
(010.435055) can0 7E6#0041F500
(010.439084) can0 7E1#0201495555555555
(010.440031) can0 7E0#0041499D00
(010.454069) can0 7E5#0201F65555555555
(010.455967) can0 7E4#0041F600
(010.459095) can0 7E3#0201115555555555
(010.460979) can0 7E2#0041119B
(010.465036) can0 7E1#0201495555555555
(010.467009) can0 7E0#0041499B00
(010.480054) can0 7E5#0201F65555555555
(010.482008) can0 7E4#0041F600
(010.485082) can0 7E3#02010D5555555555
(010.486973) can0 7E2#00410D9A
(010.491037) can0 7E1#0201495555555555
(010.492040) can0 7E0#0041499A00
(010.506123) can0 7E5#0201F65555555555
(010.508003) can0 7E4#0041F600
(010.510050) can0 7E9#0201F45555555555
(010.513095) can0 7E8#0041F40000
(010.517021) can0 7E1#0201495555555555
(010.518955) can0 7E0#0041499900
(010.533686) can0 7E5#0201F65555555555
(010.535013) can0 7E7#0201F55555555555
(010.535913) can0 7E4#0041F600
(010.536944) can0 7E6#0041F500
(010.543020) can0 7E1#0201495555555555
(010.543957) can0 7E0#0041499700
(010.558068) can0 7E5#0201F65555555555
(010.559991) can0 7E3#0201115555555555
(010.560156) can0 7E4#0041F600
(010.561024) can0 7E2#00411196
(010.569008) can0 7E1#0201495555555555
(010.570955) can0 7E0#0041499600
(010.584021) can0 7E5#0201F65555555555
(010.585982) can0 7E3#02010D5555555555
(010.586143) can0 7E4#0041F600
(010.586937) can0 7E2#00410D95
(010.594986) can0 7E1#0201495555555555
(010.596055) can0 7E0#0041499500
(010.610076) can0 7E5#0201F65555555555
(010.611109) can0 7E9#0201F45555555555
(010.612042) can0 7E4#0041F600
(010.613070) can0 7E8#0041F40000
(010.620934) can0 7E1#0201495555555555
(010.622927) can0 7E0#0041499300
(010.636006) can0 7E5#0201F65555555555
(010.636218) can0 7E7#0201F55555555555
(010.636928) can0 7E6#0041F500
(010.637917) can0 7E4#0041F600
(010.647054) can0 7E1#0201495555555555
(010.647958) can0 7E0#0041499200
(010.661057) can0 7E3#0201115555555555
(010.662069) can0 7E5#0201F65555555555
(010.662997) can0 7E2#00411191
(010.664047) can0 7E4#0041F600
(010.674032) can0 7E1#0201495555555555
(010.676161) can0 7E0#0041499100
(010.687025) can0 7E3#02010D5555555555
(010.688049) can0 7E5#0201F65555555555
(010.688989) can0 7E2#00410D90
(010.689879) can0 7E4#0041F600
(010.699971) can0 7E1#0201495555555555
(010.700895) can0 7E0#0041498F00
(010.712030) can0 7E9#0201F45555555555
(010.721148) can0 7E5#0201F65555555555
(010.721326) can0 7E8#0041F40000
(010.722848) can0 7E4#0041F600
(010.725901) can0 7E1#0201495555555555
(010.727858) can0 7E0#0041498E00
(010.737025) can0 7E7#0201F55555555555
(010.738961) can0 7E6#0041F500
(010.745906) can0 7E5#0201F65555555555
(010.747805) can0 7E4#0041F600
(010.751879) can0 7E1#0201495555555555
(010.752878) can0 7E0#0041498D00
(010.762454) can0 7E3#0201115555555555
(010.763876) can0 7E2#0041118C
(010.771889) can0 7E5#0201F65555555555
(010.773804) can0 7E4#0041F600
(010.778002) can0 7E1#0201495555555555
(010.779928) can0 7E0#0041498B00
(010.786971) can0 7E3#02010D5555555555
(010.787960) can0 7E2#00410D8B
(010.797875) can0 7E5#0201F65555555555
(010.799826) can0 7E4#0041F600
(010.803862) can0 7E1#0201495555555555
(010.804845) can0 7E0#0041498A00
(010.811868) can0 7E9#0201F45555555555
(010.814298) can0 7E8#0041F40000
(010.823881) can0 7E5#0201F65555555555
(010.825820) can0 7E4#0041F600
(010.829990) can0 7E1#0201495555555555
(010.831911) can0 7E0#0041498900
(010.836949) can0 7E7#0201F55555555555
(010.837883) can0 7E6#0041F500
(010.849987) can0 7E5#0201F65555555555
(010.851873) can0 7E4#0041F600
(010.855862) can0 7E1#0201495555555555
(010.856811) can0 7E0#0041498700
(010.861840) can0 7E3#0201115555555555
(010.863780) can0 7E2#00411187
(010.875927) can0 7E5#0201F65555555555
(010.878873) can0 7E4#0041F600
(010.881916) can0 7E1#0201495555555555
(010.883877) can0 7E0#0041498600
(010.888863) can0 7E3#02010D5555555555
(010.891803) can0 7E2#00410D86
(010.907031) can0 7E5#0201F65555555555
(010.907840) can0 7E1#0201495555555555
(010.908738) can0 7E0#0041498500
(010.908911) can0 7E4#0041F600
(010.913781) can0 7E9#0201F45555555555
(010.916781) can0 7E8#0041F40000
(010.931915) can0 7E5#0201F65555555555
(010.933815) can0 7E4#0041F600
(010.934042) can0 7E1#0201495555555555
(010.935855) can0 7E0#0041498300
(010.938907) can0 7E7#0201F55555555555
(010.940759) can0 7E6#0041F500
(010.957839) can0 7E5#0201F65555555555
(010.959808) can0 7E1#0201495555555555
(010.959978) can0 7E4#0041F600
(010.960850) can0 7E0#0041498200
(010.963872) can0 7E3#0201115555555555
(010.965719) can0 7E2#00411181
(010.983858) can0 7E5#0201F65555555555
(010.985858) can0 7E1#0201495555555555
(010.986023) can0 7E4#0041F600
(010.987835) can0 7E0#0041498100
(010.989816) can0 7E3#02010D5555555555
(010.990860) can0 7E2#00410D81
(011.009921) can0 7E5#0201F65555555555
(011.011753) can0 7E4#0041F600
(011.011980) can0 7E1#0201495555555555
(011.012741) can0 7E0#0041497F00
(011.014715) can0 7E9#0201F45555555555
(011.016711) can0 7E8#0041F40000
(011.035846) can0 7E5#0201F65555555555
(011.037765) can0 7E4#0041F600
(011.037997) can0 7E1#0201495555555555
(011.039791) can0 7E7#0201F55555555555
(011.040011) can0 7E0#0041497E00
(011.040774) can0 7E6#0041F500
(011.061811) can0 7E5#0201F65555555555
(011.063784) can0 7E1#0201495555555555
(011.063951) can0 7E4#0041F600
(011.064825) can0 7E3#0201115555555555
(011.065019) can0 7E0#0041497D00
(011.066893) can0 7E2#0041117C
(011.087798) can0 7E5#0201F65555555555
(011.089755) can0 7E1#0201495555555555
(011.089924) can0 7E4#0041F600
(011.090823) can0 7E3#02010D5555555555
(011.091818) can0 7E0#0041497B00
(011.092753) can0 7E2#00410D7C
(011.113922) can0 7E5#0201F65555555555
(011.115891) can0 7E1#0201495555555555
(011.116115) can0 7E9#0201F45555555555
(011.116286) can0 7E4#0041F600
(011.116836) can0 7E0#0041497A00
(011.118739) can0 7E8#0041F40000
(011.141794) can0 7E1#0201495555555555
(011.142106) can0 7E7#0201F55555555555
(011.143702) can0 7E0#0041497900
(011.150410) can0 7E5#0201F65555555555
(011.150549) can0 7E6#0041F500
(011.152675) can0 7E4#0041F600
(011.166699) can0 7E3#0201115555555555
(011.167636) can0 7E1#0201495555555555
(011.167802) can0 7E2#00411177
(011.168746) can0 7E0#0041497700
(011.174717) can0 7E5#0201F65555555555
(011.176602) can0 7E4#0041F600
(011.192764) can0 7E3#02010D5555555555
(011.193722) can0 7E1#0201495555555555
(011.193888) can0 7E2#00410D76
(011.195731) can0 7E0#0041497600
(011.200629) can0 7E5#0201F65555555555
(011.202550) can0 7E4#0041F600
(011.217721) can0 7E9#0201F45555555555
(011.219616) can0 7E8#0041F40000
(011.219838) can0 7E1#0201495555555555
(011.220608) can0 7E0#0041497500
(011.226664) can0 7E5#0201F65555555555
(011.228676) can0 7E4#0041F600
(011.242743) can0 7E7#0201F55555555555
(011.243588) can0 7E6#0041F500
(011.245619) can0 7E1#0201495555555555
(011.247578) can0 7E0#0041497300
(011.252647) can0 7E5#0201F65555555555
(011.254662) can0 7E4#0041F600
(011.267721) can0 7E3#0201115555555555
(011.269627) can0 7E2#00411172
(011.271713) can0 7E1#0201495555555555
(011.272684) can0 7E0#0041497200
(011.278683) can0 7E5#0201F65555555555
(011.281613) can0 7E4#0041F600
(011.293644) can0 7E3#02010D5555555555
(011.295534) can0 7E2#00410D71
(011.297662) can0 7E1#0201495555555555
(011.299671) can0 7E0#0041497100
(011.304697) can0 7E5#0201F65555555555
(011.306575) can0 7E4#0041F600
(011.318689) can0 7E9#0201F45555555555
(011.321515) can0 7E8#0041F40000
(011.323548) can0 7E1#0201495555555555
(011.324633) can0 7E0#0041496F00
(011.331791) can0 7E5#0201F65555555555
(011.333472) can0 7E4#0041F600
(011.343662) can0 7E7#0201F55555555555
(011.345576) can0 7E6#0041F500
(011.349666) can0 7E1#0201495555555555
(011.351611) can0 7E0#0041496E00
(011.356717) can0 7E5#0201F65555555555
(011.358543) can0 7E4#0041F600
(011.368564) can0 7E3#0201115555555555
(011.369530) can0 7E2#0041116D
(011.375668) can0 7E1#0201495555555555
(011.376589) can0 7E0#0041496D00
(011.382559) can0 7E5#0201F65555555555
(011.384596) can0 7E4#0041F600
(011.395592) can0 7E3#02010D5555555555
(011.396630) can0 7E2#00410D6C
(011.401620) can0 7E1#0201495555555555
(011.403576) can0 7E0#0041496B00
(011.408652) can0 7E5#0201F65555555555
(011.410462) can0 7E4#0041F600
(011.420533) can0 7E9#0201F45555555555
(011.421896) can0 7E8#0041F40000
(011.427538) can0 7E1#0201495555555555
(011.428559) can0 7E0#0041496A00
(011.434513) can0 7E5#0201F65555555555
(011.436558) can0 7E4#0041F600
(011.445616) can0 7E7#0201F55555555555
(011.446454) can0 7E6#0041F500
(011.453606) can0 7E1#0201495555555555
(011.455554) can0 7E0#0041496900
(011.460491) can0 7E5#0201F65555555555
(011.462465) can0 7E4#0041F600
(011.470515) can0 7E3#0201115555555555
(011.472425) can0 7E2#00411168
(011.479601) can0 7E1#0201495555555555
(011.480572) can0 7E0#0041496800
(011.486607) can0 7E5#0201F65555555555
(011.488518) can0 7E4#0041F600
(011.496508) can0 7E3#02010D5555555555
(011.498411) can0 7E2#00410D67
(011.505471) can0 7E1#0201495555555555
(011.507424) can0 7E0#0041496600
(011.516519) can0 7E5#0201F65555555555
(011.518392) can0 7E4#0041F600
(011.521445) can0 7E9#0201F45555555555
(011.524429) can0 7E8#0041F40000
(011.531549) can0 7E1#0201495555555555
(011.532422) can0 7E0#0041496500
(011.541502) can0 7E5#0201F65555555555
(011.543388) can0 7E4#0041F600
(011.546494) can0 7E7#0201F55555555555
(011.548391) can0 7E6#0041F500
(011.557493) can0 7E1#0201495555555555
(011.561364) can0 7E0#0041496300
(011.567458) can0 7E5#0201F65555555555
(011.569360) can0 7E4#0041F600
(011.571537) can0 7E3#0201115555555555
(011.572412) can0 7E2#00411163
(011.583525) can0 7E1#0201495555555555
(011.584507) can0 7E0#0041496200
(011.593467) can0 7E5#0201F65555555555
(011.595491) can0 7E4#0041F600
(011.597549) can0 7E3#02010D5555555555
(011.598523) can0 7E2#00410D62
(011.609546) can0 7E1#0201495555555555
(011.611523) can0 7E0#0041496100
(011.619421) can0 7E5#0201F65555555555
(011.621323) can0 7E4#0041F600
(011.622415) can0 7E9#0201F45555555555
(011.624392) can0 7E8#0041F40000
(011.635439) can0 7E1#0201495555555555
(011.636342) can0 7E0#0041496000
(011.645515) can0 7E5#0201F65555555555
(011.647466) can0 7E7#0201F55555555555
(011.647631) can0 7E4#0041F600
(011.648496) can0 7E6#0041F500
(011.661385) can0 7E1#0201495555555555
(011.663280) can0 7E0#0041495E00
(011.671421) can0 7E5#0201F65555555555
(011.672376) can0 7E3#0201115555555555
(011.673318) can0 7E4#0041F600
(011.674395) can0 7E2#0041115D
(011.687466) can0 7E1#0201495555555555
(011.688449) can0 7E0#0041495D00
(011.697349) can0 7E5#0201F65555555555
(011.699341) can0 7E3#02010D5555555555
(011.699509) can0 7E4#0041F600
(011.701327) can0 7E2#00410D5C
(011.713449) can0 7E1#0201495555555555
(011.715296) can0 7E0#0041495C00
(011.723351) can0 7E5#0201F65555555555
(011.725292) can0 7E9#0201F45555555555
(011.725457) can0 7E4#0041F600
(011.728276) can0 7E8#0041F40000
(011.739314) can0 7E1#0201495555555555
(011.740308) can0 7E0#0041495A00
(011.750301) can0 7E7#0201F55555555555
(011.754434) can0 7E5#0201F65555555555
(011.754592) can0 7E6#0041F500
(011.756210) can0 7E4#0041F600
(011.765324) can0 7E1#0201495555555555
(011.767361) can0 7E0#0041495900
(011.775380) can0 7E3#0201115555555555
(011.776378) can0 7E2#00411158
(011.779346) can0 7E5#0201F65555555555
(011.781232) can0 7E4#0041F600
(011.791552) can0 7E1#0201495555555555
(011.792425) can0 7E0#0041495800
(011.801303) can0 7E3#02010D5555555555
(011.802272) can0 7E2#00410D57
(011.805295) can0 7E5#0201F65555555555
(011.807221) can0 7E4#0041F600
(011.817403) can0 7E1#0201495555555555
(011.819379) can0 7E0#0041495600
(011.826276) can0 7E9#0201F45555555555
(011.828247) can0 7E8#0041F40000
(011.831252) can0 7E5#0201F65555555555
(011.833197) can0 7E4#0041F600
(011.846039) can0 7E1#0201495555555555
(011.847273) can0 7E0#0041495500
(011.851278) can0 7E7#0201F55555555555
(011.852223) can0 7E6#0041F500
(011.857314) can0 7E5#0201F65555555555
(011.859228) can0 7E4#0041F600
(011.870272) can0 7E1#0201495555555555
(011.872229) can0 7E0#0041495400
(011.876264) can0 7E3#0201115555555555
(011.878193) can0 7E2#00411153
(011.883372) can0 7E5#0201F65555555555
(011.886659) can0 7E4#0041F600
(011.896332) can0 7E1#0201495555555555
(011.897218) can0 7E0#0041495200
(011.902224) can0 7E3#02010D5555555555
(011.904138) can0 7E2#00410D52
(011.909268) can0 7E5#0201F65555555555
(011.911205) can0 7E4#0041F600
(011.922237) can0 7E1#0201495555555555
(011.924239) can0 7E0#0041495100
(011.927284) can0 7E9#0201F45555555555
(011.930212) can0 7E8#0041F40000
(011.937287) can0 7E5#0201F65555555555
(011.939203) can0 7E4#0041F600
(011.948243) can0 7E1#0201495555555555
(011.949183) can0 7E0#0041495000
(011.952233) can0 7E7#0201F55555555555
(011.954177) can0 7E6#0041F500
(011.962170) can0 7E5#0201F65555555555
(011.964102) can0 7E4#0041F600
(011.974207) can0 7E1#0201495555555555
(011.976160) can0 7E0#0041494E00
(011.977201) can0 7E3#0201115555555555
(011.978150) can0 7E2#0041114E
(011.988212) can0 7E5#0201F65555555555
(011.990147) can0 7E4#0041F600
(012.000339) can0 7E1#0201495555555555
(012.001347) can0 7E0#0041494D00
(012.003310) can0 7E3#02010D5555555555
(012.004321) can0 7E2#00410D4D
(012.014211) can0 7E5#0201F65555555555
(012.016135) can0 7E4#0041F600
(012.026208) can0 7E1#0201495555555555
(012.028207) can0 7E9#0201F45555555555
(012.028390) can0 7E0#0041494C00
(012.031926) can0 7E8#0041F40000
(012.040246) can0 7E5#0201F65555555555
(012.042150) can0 7E4#0041F600
(012.052311) can0 7E1#0201495555555555
(012.053345) can0 7E7#0201F55555555555
(012.053524) can0 7E0#0041494A00
(012.054207) can0 7E6#0041F500
(012.066294) can0 7E5#0201F65555555555
(012.068235) can0 7E4#0041F600
(012.078223) can0 7E3#0201115555555555
(012.078434) can0 7E1#0201495555555555
(012.080106) can0 7E0#0041494900
(012.080273) can0 7E2#00411149
(012.092171) can0 7E5#0201F65555555555
(012.094108) can0 7E4#0041F600
(012.104271) can0 7E3#02010D5555555555
(012.104491) can0 7E1#0201495555555555
(012.105252) can0 7E0#0041494800
(012.106177) can0 7E2#00410D48
(012.118271) can0 7E5#0201F65555555555
(012.120084) can0 7E4#0041F600
(012.129156) can0 7E9#0201F45555555555
(012.130178) can0 7E1#0201495555555555
(012.132132) can0 7E8#0041F40000
(012.132308) can0 7E0#0041494600
(012.144260) can0 7E5#0201F65555555555
(012.146192) can0 7E4#0041F600
(012.154251) can0 7E7#0201F55555555555
(012.156102) can0 7E6#0041F500
(012.156331) can0 7E1#0201495555555555
(012.157223) can0 7E0#0041494500
(012.173142) can0 7E5#0201F65555555555
(012.175046) can0 7E4#0041F600
(012.179153) can0 7E3#0201115555555555
(012.180060) can0 7E2#00411144
(012.182272) can0 7E1#0201495555555555
(012.184219) can0 7E0#0041494400
(012.198136) can0 7E5#0201F65555555555
